/*******************************************************************************
Copyright (c) 2022 Rapid Silicon
This source code contains proprietary information belonging to Rapid Silicon
(the "licensor") released under license and non-disclosure agreement to the
recipient (the "licensee").

The information shared and protected by the license and non-disclosure agreement
includes but is not limited to the following:
* operational algorithms of the product
* logos, graphics, source code, and visual presentation of the product
* confidential operational information of the licensor

The recipient of this source code is NOT permitted to publicly disclose,
re-use, archive beyond the period of the license agreement, transfer to a
sub-licensee, or re-implement any portion of the content covered by the license
and non-disclosure agreement without the prior written consent of the licensor.

Portions of Raptor Design Suite are utilized under the following third-party copyright notices:

Parallax Static Timing Analyzer Copyright (c) 2021, Parallax Software, Inc. All rights reserved.
*********************************************************************************/

Version  : 2023.11
Build    : 0.8.55
Hash     : 3d5df9b
Date     : Nov 10 2023
Type     : Engineering
Log Time   : Tue Nov 14 12:10:02 2023 GMT

INFO: Created design: axi_cdma_wrapper. Project type: rtl
INFO: Target device: GEMINI_COMPACT_104x68
INFO: Device version: v1.6.184
INFO: IP Catalog, browsing directory for IP generator(s): /nfs_eda_sw/softwares/Raptor/instl_dir/11_10_2023_09_15_01/share/raptor/IP_Catalog
INFO: IP Catalog, found 42 IPs
INFO: IPG: ##################################################
INFO: IPG: IP generation for design: axi_cdma_wrapper
INFO: IPG: ##################################################
INFO: IPG: IP Generate, generating IP /nfs_scratch/scratch/CompilerValidation/abdul_hameed/Compiler_Validation/RTL_testcases/IP_Catalog_Designs/axi_cdma_default/axi_cdma_wrapper/axi_cdma_wrapper.IPs/rapidsilicon/ip/axi_cdma/v1_0/axi_cdma_wrapper
INFO: IPG: Design axi_cdma_wrapper IPs are generated
INFO: Adding VERILOG_2001 /nfs_scratch/scratch/CompilerValidation/abdul_hameed/Compiler_Validation/RTL_testcases/IP_Catalog_Designs/axi_cdma_default/./axi_cdma_wrapper/axi_cdma_wrapper.IPs/rapidsilicon/ip/axi_cdma/v1_0/axi_cdma_wrapper/src/axi_cdma_wrapper.v 
INFO: ANL: ##################################################
INFO: ANL: Analysis for design: axi_cdma_wrapper
INFO: ANL: ##################################################
INFO: ANL: Analyze command: /nfs_eda_sw/softwares/Raptor/instl_dir/11_10_2023_09_15_01/bin/yosys -s /nfs_scratch/scratch/CompilerValidation/abdul_hameed/Compiler_Validation/RTL_testcases/IP_Catalog_Designs/axi_cdma_default/axi_cdma_wrapper/run_1/synth_1_1/analysis/axi_cdma_wrapper_analyzer.cmd
Command: /nfs_eda_sw/softwares/Raptor/instl_dir/11_10_2023_09_15_01/bin/yosys -s /nfs_scratch/scratch/CompilerValidation/abdul_hameed/Compiler_Validation/RTL_testcases/IP_Catalog_Designs/axi_cdma_default/axi_cdma_wrapper/run_1/synth_1_1/analysis/axi_cdma_wrapper_analyzer.cmd

 /----------------------------------------------------------------------------\
 |                                                                            |
 |  yosys -- Yosys Open SYnthesis Suite                                       |
 |                                                                            |
 |  Copyright (C) 2012 - 2020  Claire Xenia Wolf <claire@yosyshq.com>         |
 |                                                                            |
 |  Permission to use, copy, modify, and/or distribute this software for any  |
 |  purpose with or without fee is hereby granted, provided that the above    |
 |  copyright notice and this permission notice appear in all copies.         |
 |                                                                            |
 |  THE SOFTWARE IS PROVIDED "AS IS" AND THE AUTHOR DISCLAIMS ALL WARRANTIES  |
 |  WITH REGARD TO THIS SOFTWARE INCLUDING ALL IMPLIED WARRANTIES OF          |
 |  MERCHANTABILITY AND FITNESS. IN NO EVENT SHALL THE AUTHOR BE LIABLE FOR   |
 |  ANY SPECIAL, DIRECT, INDIRECT, OR CONSEQUENTIAL DAMAGES OR ANY DAMAGES    |
 |  WHATSOEVER RESULTING FROM LOSS OF USE, DATA OR PROFITS, WHETHER IN AN     |
 |  ACTION OF CONTRACT, NEGLIGENCE OR OTHER TORTIOUS ACTION, ARISING OUT OF   |
 |  OR IN CONNECTION WITH THE USE OR PERFORMANCE OF THIS SOFTWARE.            |
 |                                                                            |
 \----------------------------------------------------------------------------/

 Yosys 0.18+10 (git sha1 4e5aedd8e, gcc 11.2.1 -fPIC -Os)


-- Executing script file `/nfs_scratch/scratch/CompilerValidation/abdul_hameed/Compiler_Validation/RTL_testcases/IP_Catalog_Designs/axi_cdma_default/axi_cdma_wrapper/run_1/synth_1_1/analysis/axi_cdma_wrapper_analyzer.cmd' --

1. Executing Verilog-2005 frontend: /nfs_eda_sw/softwares/Raptor/instl_dir/11_10_2023_09_15_01/share/raptor/sim_models/rapidsilicon/genesis3/cell_sim_blackbox.v
Parsing SystemVerilog input from `/nfs_eda_sw/softwares/Raptor/instl_dir/11_10_2023_09_15_01/share/raptor/sim_models/rapidsilicon/genesis3/cell_sim_blackbox.v' to AST representation.
Generating RTLIL representation for module `\BOOT_CLOCK'.
Generating RTLIL representation for module `\CARRY_CHAIN'.
Generating RTLIL representation for module `\CLK_BUF'.
Generating RTLIL representation for module `\DFFNRE'.
Generating RTLIL representation for module `\DFFRE'.
Generating RTLIL representation for module `\DSP19X2'.
Generating RTLIL representation for module `\DSP38'.
Generating RTLIL representation for module `\FIFO18KX2'.
Generating RTLIL representation for module `\FIFO36K'.
Generating RTLIL representation for module `\I_BUF'.
Generating RTLIL representation for module `\I_BUF_DS'.
Generating RTLIL representation for module `\I_DDR'.
Generating RTLIL representation for module `\I_DELAY'.
Generating RTLIL representation for module `\I_SERDES'.
Generating RTLIL representation for module `\LUT1'.
Generating RTLIL representation for module `\LUT2'.
Generating RTLIL representation for module `\LUT3'.
Generating RTLIL representation for module `\LUT4'.
Generating RTLIL representation for module `\LUT5'.
Generating RTLIL representation for module `\LUT6'.
Generating RTLIL representation for module `\O_BUF'.
Generating RTLIL representation for module `\O_BUFT'.
Generating RTLIL representation for module `\O_BUFT_DS'.
Generating RTLIL representation for module `\O_BUF_DS'.
Generating RTLIL representation for module `\O_DDR'.
Generating RTLIL representation for module `\O_DELAY'.
Generating RTLIL representation for module `\O_SERDES'.
Generating RTLIL representation for module `\PLL'.
Generating RTLIL representation for module `\SOC_FPGA_INTF_AHB_S'.
Generating RTLIL representation for module `\SOC_FPGA_INTF_AXI_M0'.
Generating RTLIL representation for module `\SOC_FPGA_INTF_AXI_M1'.
Generating RTLIL representation for module `\SOC_FPGA_INTF_DMA'.
Generating RTLIL representation for module `\SOC_FPGA_INTF_IRQ'.
Generating RTLIL representation for module `\SOC_FPGA_INTF_JTAG'.
Generating RTLIL representation for module `\TDP_RAM18KX2'.
Generating RTLIL representation for module `\TDP_RAM36K'.
Generating RTLIL representation for module `\LATCH'.
Generating RTLIL representation for module `\LATCHN'.
Generating RTLIL representation for module `\LATCHR'.
Generating RTLIL representation for module `\LATCHS'.
Generating RTLIL representation for module `\LATCHNR'.
Generating RTLIL representation for module `\LATCHNS'.
Generating RTLIL representation for module `\RS_DSP'.
Generating RTLIL representation for module `\RS_DSP_MULT'.
Generating RTLIL representation for module `\RS_DSP_MULT_REGIN'.
Generating RTLIL representation for module `\RS_DSP_MULT_REGOUT'.
Generating RTLIL representation for module `\RS_DSP_MULT_REGIN_REGOUT'.
Generating RTLIL representation for module `\RS_DSP_MULTADD'.
Generating RTLIL representation for module `\RS_DSP_MULTADD_REGIN'.
Generating RTLIL representation for module `\RS_DSP_MULTADD_REGOUT'.
Generating RTLIL representation for module `\RS_DSP_MULTADD_REGIN_REGOUT'.
Generating RTLIL representation for module `\RS_DSP_MULTACC'.
Generating RTLIL representation for module `\RS_DSP_MULTACC_REGIN'.
Generating RTLIL representation for module `\RS_DSP_MULTACC_REGOUT'.
Generating RTLIL representation for module `\RS_DSP_MULTACC_REGIN_REGOUT'.
Generating RTLIL representation for module `\RS_TDP36K'.
Generating RTLIL representation for module `\BRAM2x18_TDP'.
Generating RTLIL representation for module `\BRAM2x18_SDP'.
Generating RTLIL representation for module `\_$_mem_v2_asymmetric'.
Successfully finished Verilog frontend.

2. Executing Verilog-2005 frontend: ../../../.././axi_cdma_wrapper/axi_cdma_wrapper.IPs/rapidsilicon/ip/axi_cdma/v1_0/axi_cdma_wrapper/src/axi_cdma.v
Parsing Verilog input from `../../../.././axi_cdma_wrapper/axi_cdma_wrapper.IPs/rapidsilicon/ip/axi_cdma/v1_0/axi_cdma_wrapper/src/axi_cdma.v' to AST representation.
Generating RTLIL representation for module `\axi_cdma'.
Successfully finished Verilog frontend.

3. Executing Verilog-2005 frontend: /nfs_scratch/scratch/CompilerValidation/abdul_hameed/Compiler_Validation/RTL_testcases/IP_Catalog_Designs/axi_cdma_default/./axi_cdma_wrapper/axi_cdma_wrapper.IPs/rapidsilicon/ip/axi_cdma/v1_0/axi_cdma_wrapper/src/axi_cdma_wrapper.v
Parsing Verilog input from `/nfs_scratch/scratch/CompilerValidation/abdul_hameed/Compiler_Validation/RTL_testcases/IP_Catalog_Designs/axi_cdma_default/./axi_cdma_wrapper/axi_cdma_wrapper.IPs/rapidsilicon/ip/axi_cdma/v1_0/axi_cdma_wrapper/src/axi_cdma_wrapper.v' to AST representation.
Generating RTLIL representation for module `\axi_cdma_wrapper'.
Successfully finished Verilog frontend.

-- Running command `hierarchy -top axi_cdma_wrapper' --

4. Executing HIERARCHY pass (managing design hierarchy).

4.1. Analyzing design hierarchy..
Top module:  \axi_cdma_wrapper
Used module:     \axi_cdma
Parameter \IP_TYPE = 40'0100001101000100010011010100000100110001
Parameter \IP_VERSION = 1
Parameter \IP_ID = 48976529
Parameter \AXI_DATA_WIDTH = 32
Parameter \AXI_ADDR_WIDTH = 16
Parameter \AXI_ID_WIDTH = 8
Parameter \AXI_MAX_BURST_LEN = 16
Parameter \LEN_WIDTH = 20
Parameter \TAG_WIDTH = 8
Parameter \ENABLE_UNALIGNED = 1'0

4.2. Executing AST frontend in derive mode using pre-parsed AST for module `\axi_cdma'.
Parameter \IP_TYPE = 40'0100001101000100010011010100000100110001
Parameter \IP_VERSION = 1
Parameter \IP_ID = 48976529
Parameter \AXI_DATA_WIDTH = 32
Parameter \AXI_ADDR_WIDTH = 16
Parameter \AXI_ID_WIDTH = 8
Parameter \AXI_MAX_BURST_LEN = 16
Parameter \LEN_WIDTH = 20
Parameter \TAG_WIDTH = 8
Parameter \ENABLE_UNALIGNED = 1'0
Generating RTLIL representation for module `$paramod$8ab3389195257f79efc370fb367cfa3d29a60d12\axi_cdma'.

4.3. Analyzing design hierarchy..
Top module:  \axi_cdma_wrapper
Used module:     $paramod$8ab3389195257f79efc370fb367cfa3d29a60d12\axi_cdma

4.4. Analyzing design hierarchy..
Top module:  \axi_cdma_wrapper
Used module:     $paramod$8ab3389195257f79efc370fb367cfa3d29a60d12\axi_cdma
Removing unused module `\axi_cdma'.
Removed 1 unused modules.

Dumping file hier_info.json ...
 Process module "$paramod$8ab3389195257f79efc370fb367cfa3d29a60d12\\axi_cdma"
Dumping file port_info.json ...

End of script. Logfile hash: b0bb34f56e, CPU: user 0.11s system 0.02s, MEM: 14.49 MB peak
Yosys 0.18+10 (git sha1 4e5aedd8e, gcc 11.2.1 -fPIC -Os)
Time spent: 62% 6x read_verilog (0 sec), 34% 1x hierarchy (0 sec), ...
INFO: ANL: Design axi_cdma_wrapper is analyzed
INFO: ANL: Top Modules: axi_cdma_wrapper

rm -f results.xml
/usr/bin/make -f Makefile results.xml
make[1]: Entering directory `/nfs_scratch/scratch/CompilerValidation/abdul_hameed/Compiler_Validation/RTL_testcases/IP_Catalog_Designs/axi_cdma_default/axi_cdma_wrapper/axi_cdma_wrapper.IPs/rapidsilicon/ip/axi_cdma/v1_0/axi_cdma_wrapper/sim'
echo 'module iverilog_dump();' > iverilog_dump.v
echo 'initial begin' >> iverilog_dump.v
echo '    $dumpfile("/nfs_scratch/scratch/CompilerValidation/abdul_hameed/Compiler_Validation/RTL_testcases/IP_Catalog_Designs/axi_cdma_default/axi_cdma_wrapper/axi_cdma_wrapper.IPs/simulation/rapidsilicon/ip/axi_cdma/v1_0/axi_cdma_wrapper/axi_cdma_wrapper.fst");' >> iverilog_dump.v
echo '    $dumpvars(0, axi_cdma_wrapper);' >> iverilog_dump.v
echo 'end' >> iverilog_dump.v
echo 'endmodule' >> iverilog_dump.v
/nfs_eda_sw/softwares/Raptor/instl_dir/11_10_2023_09_15_01/bin/HDL_simulator/iverilog/bin/iverilog -o /nfs_scratch/scratch/CompilerValidation/abdul_hameed/Compiler_Validation/RTL_testcases/IP_Catalog_Designs/axi_cdma_default/axi_cdma_wrapper/axi_cdma_wrapper.IPs/simulation/rapidsilicon/ip/axi_cdma/v1_0/axi_cdma_wrapper/sim.vvp -D COCOTB_SIM=1 -s axi_cdma_wrapper -s iverilog_dump -f /nfs_scratch/scratch/CompilerValidation/abdul_hameed/Compiler_Validation/RTL_testcases/IP_Catalog_Designs/axi_cdma_default/axi_cdma_wrapper/axi_cdma_wrapper.IPs/simulation/rapidsilicon/ip/axi_cdma/v1_0/axi_cdma_wrapper/cmds.f -g2012   ../src/*.v iverilog_dump.v
rm -f results.xml
MODULE=test_axi_cdma TESTCASE= TOPLEVEL=axi_cdma_wrapper TOPLEVEL_LANG=verilog \
         /nfs_eda_sw/softwares/Raptor/instl_dir/11_10_2023_09_15_01/bin/HDL_simulator/iverilog/bin/vvp -M /nfs_eda_sw/softwares/Raptor/instl_dir/11_10_2023_09_15_01/share/envs/litex/lib/python3.8/site-packages/cocotb/libs -m libcocotbvpi_icarus   /nfs_scratch/scratch/CompilerValidation/abdul_hameed/Compiler_Validation/RTL_testcases/IP_Catalog_Designs/axi_cdma_default/axi_cdma_wrapper/axi_cdma_wrapper.IPs/simulation/rapidsilicon/ip/axi_cdma/v1_0/axi_cdma_wrapper/sim.vvp -fst
     -.--ns INFO     gpi                                ..mbed/gpi_embed.cpp:76   in set_program_name_in_venv        Did not detect Python virtual environment. Using system-wide Python interpreter
     -.--ns INFO     gpi                                ../gpi/GpiCommon.cpp:101  in gpi_print_registered_impl       VPI registered
     0.00ns INFO     cocotb                             Running on Icarus Verilog version 13.0 (devel)
     0.00ns INFO     cocotb                             Running tests with cocotb v1.7.1 from /nfs_eda_sw/softwares/Raptor/instl_dir/11_10_2023_09_15_01/share/envs/litex/lib/python3.8/site-packages/cocotb
     0.00ns INFO     cocotb                             Seeding Python random module with 1699963826
     0.00ns INFO     cocotb.regression                  Found test test_axi_cdma.run_test_001
     0.00ns INFO     cocotb.regression                  Found test test_axi_cdma.run_test_002
     0.00ns INFO     cocotb.regression                  Found test test_axi_cdma.run_test_003
     0.00ns INFO     cocotb.regression                  Found test test_axi_cdma.run_test_004
     0.00ns INFO     cocotb.regression                  running run_test_001 (1/4)
                                                          Automatically generated test
                                                          
                                                          idle_inserter: None
                                                          backpressure_inserter: None
     0.00ns INFO     ..otb.axi_cdma_wrapper.s_axis_desc Reset de-asserted
     0.00ns INFO     .._cdma_wrapper.m_axis_desc_status Reset de-asserted
     0.00ns INFO     cocotb.axi_cdma_wrapper.m_axi      AXI slave model (write)
     0.00ns INFO     cocotb.axi_cdma_wrapper.m_axi      cocotbext-axi version 0.1.18
     0.00ns INFO     cocotb.axi_cdma_wrapper.m_axi      Copyright (c) 2021 Alex Forencich
     0.00ns INFO     cocotb.axi_cdma_wrapper.m_axi      https://github.com/alexforencich/cocotbext-axi
     0.00ns INFO     cocotb.axi_cdma_wrapper.m_axi      Reset de-asserted
     0.00ns INFO     cocotb.axi_cdma_wrapper.m_axi      Reset de-asserted
     0.00ns INFO     cocotb.axi_cdma_wrapper.m_axi      Reset de-asserted
     0.00ns INFO     cocotb.axi_cdma_wrapper.m_axi      AXI slave model configuration:
     0.00ns INFO     cocotb.axi_cdma_wrapper.m_axi        Address width: 16 bits
     0.00ns INFO     cocotb.axi_cdma_wrapper.m_axi        ID width: 8 bits
     0.00ns INFO     cocotb.axi_cdma_wrapper.m_axi        Byte size: 8 bits
     0.00ns INFO     cocotb.axi_cdma_wrapper.m_axi        Data width: 32 bits (4 bytes)
     0.00ns INFO     cocotb.axi_cdma_wrapper.m_axi      AXI slave model signals:
     0.00ns INFO     cocotb.axi_cdma_wrapper.m_axi        awaddr width: 16 bits
     0.00ns INFO     cocotb.axi_cdma_wrapper.m_axi        awburst width: 2 bits
     0.00ns INFO     cocotb.axi_cdma_wrapper.m_axi        awcache width: 4 bits
     0.00ns INFO     cocotb.axi_cdma_wrapper.m_axi        awid width: 8 bits
     0.00ns INFO     cocotb.axi_cdma_wrapper.m_axi        awlen width: 8 bits
     0.00ns INFO     cocotb.axi_cdma_wrapper.m_axi        awlock width: 1 bits
     0.00ns INFO     cocotb.axi_cdma_wrapper.m_axi        awprot width: 3 bits
     0.00ns INFO     cocotb.axi_cdma_wrapper.m_axi        awqos width: 4 bits
     0.00ns INFO     cocotb.axi_cdma_wrapper.m_axi        awready width: 1 bits
     0.00ns INFO     cocotb.axi_cdma_wrapper.m_axi        awregion width: 4 bits
     0.00ns INFO     cocotb.axi_cdma_wrapper.m_axi        awsize width: 3 bits
     0.00ns INFO     cocotb.axi_cdma_wrapper.m_axi        awuser width: 1 bits
     0.00ns INFO     cocotb.axi_cdma_wrapper.m_axi        awvalid width: 1 bits
     0.00ns INFO     cocotb.axi_cdma_wrapper.m_axi        wdata width: 32 bits
     0.00ns INFO     cocotb.axi_cdma_wrapper.m_axi        wlast width: 1 bits
     0.00ns INFO     cocotb.axi_cdma_wrapper.m_axi        wready width: 1 bits
     0.00ns INFO     cocotb.axi_cdma_wrapper.m_axi        wstrb width: 4 bits
     0.00ns INFO     cocotb.axi_cdma_wrapper.m_axi        wuser width: 1 bits
     0.00ns INFO     cocotb.axi_cdma_wrapper.m_axi        wvalid width: 1 bits
     0.00ns INFO     cocotb.axi_cdma_wrapper.m_axi        bid width: 8 bits
     0.00ns INFO     cocotb.axi_cdma_wrapper.m_axi        bready width: 1 bits
     0.00ns INFO     cocotb.axi_cdma_wrapper.m_axi        bresp width: 2 bits
     0.00ns INFO     cocotb.axi_cdma_wrapper.m_axi        buser width: 1 bits
     0.00ns INFO     cocotb.axi_cdma_wrapper.m_axi        bvalid width: 1 bits
     0.00ns INFO     cocotb.axi_cdma_wrapper.m_axi      Reset de-asserted
     0.00ns INFO     cocotb.axi_cdma_wrapper.m_axi      AXI slave model (read)
     0.00ns INFO     cocotb.axi_cdma_wrapper.m_axi      cocotbext-axi version 0.1.18
     0.00ns INFO     cocotb.axi_cdma_wrapper.m_axi      Copyright (c) 2021 Alex Forencich
     0.00ns INFO     cocotb.axi_cdma_wrapper.m_axi      https://github.com/alexforencich/cocotbext-axi
     0.00ns INFO     cocotb.axi_cdma_wrapper.m_axi      Reset de-asserted
     0.00ns INFO     cocotb.axi_cdma_wrapper.m_axi      Reset de-asserted
     0.00ns INFO     cocotb.axi_cdma_wrapper.m_axi      AXI slave model configuration:
     0.00ns INFO     cocotb.axi_cdma_wrapper.m_axi        Address width: 16 bits
     0.00ns INFO     cocotb.axi_cdma_wrapper.m_axi        ID width: 8 bits
     0.00ns INFO     cocotb.axi_cdma_wrapper.m_axi        Byte size: 8 bits
     0.00ns INFO     cocotb.axi_cdma_wrapper.m_axi        Data width: 32 bits (4 bytes)
     0.00ns INFO     cocotb.axi_cdma_wrapper.m_axi      AXI slave model signals:
     0.00ns INFO     cocotb.axi_cdma_wrapper.m_axi        araddr width: 16 bits
     0.00ns INFO     cocotb.axi_cdma_wrapper.m_axi        arburst width: 2 bits
     0.00ns INFO     cocotb.axi_cdma_wrapper.m_axi        arcache width: 4 bits
     0.00ns INFO     cocotb.axi_cdma_wrapper.m_axi        arid width: 8 bits
     0.00ns INFO     cocotb.axi_cdma_wrapper.m_axi        arlen width: 8 bits
     0.00ns INFO     cocotb.axi_cdma_wrapper.m_axi        arlock width: 1 bits
     0.00ns INFO     cocotb.axi_cdma_wrapper.m_axi        arprot width: 3 bits
     0.00ns INFO     cocotb.axi_cdma_wrapper.m_axi        arqos width: 4 bits
     0.00ns INFO     cocotb.axi_cdma_wrapper.m_axi        arready width: 1 bits
     0.00ns INFO     cocotb.axi_cdma_wrapper.m_axi        arregion width: 4 bits
     0.00ns INFO     cocotb.axi_cdma_wrapper.m_axi        arsize width: 3 bits
     0.00ns INFO     cocotb.axi_cdma_wrapper.m_axi        aruser width: 1 bits
     0.00ns INFO     cocotb.axi_cdma_wrapper.m_axi        arvalid width: 1 bits
     0.00ns INFO     cocotb.axi_cdma_wrapper.m_axi        rdata width: 32 bits
     0.00ns INFO     cocotb.axi_cdma_wrapper.m_axi        rid width: 8 bits
     0.00ns INFO     cocotb.axi_cdma_wrapper.m_axi        rlast width: 1 bits
     0.00ns INFO     cocotb.axi_cdma_wrapper.m_axi        rready width: 1 bits
     0.00ns INFO     cocotb.axi_cdma_wrapper.m_axi        rresp width: 2 bits
     0.00ns INFO     cocotb.axi_cdma_wrapper.m_axi        ruser width: 1 bits
     0.00ns INFO     cocotb.axi_cdma_wrapper.m_axi        rvalid width: 1 bits
     0.00ns INFO     cocotb.axi_cdma_wrapper.m_axi      Reset de-asserted
    10.00ns INFO     ..otb.axi_cdma_wrapper.s_axis_desc Reset asserted
    10.00ns INFO     .._cdma_wrapper.m_axis_desc_status Reset asserted
    10.00ns INFO     cocotb.axi_cdma_wrapper.m_axi      Reset asserted
    10.00ns INFO     cocotb.axi_cdma_wrapper.m_axi      Reset asserted
    10.00ns INFO     cocotb.axi_cdma_wrapper.m_axi      Reset asserted
    10.00ns INFO     cocotb.axi_cdma_wrapper.m_axi      Reset asserted
    10.00ns INFO     cocotb.axi_cdma_wrapper.m_axi      Reset asserted
    10.00ns INFO     cocotb.axi_cdma_wrapper.m_axi      Reset asserted
    10.00ns INFO     cocotb.axi_cdma_wrapper.m_axi      Reset asserted
    30.00ns INFO     ..otb.axi_cdma_wrapper.s_axis_desc Reset de-asserted
    30.00ns INFO     .._cdma_wrapper.m_axis_desc_status Reset de-asserted
    30.00ns INFO     cocotb.axi_cdma_wrapper.m_axi      Reset de-asserted
    30.00ns INFO     cocotb.axi_cdma_wrapper.m_axi      Reset de-asserted
    30.00ns INFO     cocotb.axi_cdma_wrapper.m_axi      Reset de-asserted
    30.00ns INFO     cocotb.axi_cdma_wrapper.m_axi      Reset de-asserted
    30.00ns INFO     cocotb.axi_cdma_wrapper.m_axi      Reset de-asserted
    30.00ns INFO     cocotb.axi_cdma_wrapper.m_axi      Reset de-asserted
    30.00ns INFO     cocotb.axi_cdma_wrapper.m_axi      Reset de-asserted
    50.00ns INFO     cocotb.tb                          length 1, read_offset 8, write_offset 8
   100.00ns INFO     cocotb.axi_cdma_wrapper.m_axi      Write burst awid: 0x0 awaddr: 0x00009008 awlen: 0 awsize: 2 awprot: AxiProt.NONSECURE
   100.00ns INFO     cocotb.axi_cdma_wrapper.m_axi      Read burst arid: 0x0 araddr: 0x00001008 arlen: 0 arsize: 2 arprot: AxiProt.NONSECURE
   170.00ns INFO     cocotb.tb                          status: DescStatusTransaction(tag=1, error=0)
   170.00ns DEBUG    cocotb.tb                          00008ff0: 00 00 00 00 00 00 00 00 00 00 00 00 00 00 00 00  ................
                                                        00009000: aa aa aa aa aa aa aa aa 00 aa aa aa aa aa aa aa  ................
                                                        00009010: aa aa aa aa aa aa aa aa aa aa aa aa aa aa aa aa  ................
   170.00ns INFO     cocotb.tb                          length 1, read_offset 8, write_offset 12
   220.00ns INFO     cocotb.axi_cdma_wrapper.m_axi      Write burst awid: 0x0 awaddr: 0x0000900c awlen: 0 awsize: 2 awprot: AxiProt.NONSECURE
   220.00ns INFO     cocotb.axi_cdma_wrapper.m_axi      Read burst arid: 0x0 araddr: 0x00001008 arlen: 0 arsize: 2 arprot: AxiProt.NONSECURE
   290.00ns INFO     cocotb.tb                          status: DescStatusTransaction(tag=2, error=0)
   290.00ns DEBUG    cocotb.tb                          00008ff0: 00 00 00 00 00 00 00 00 00 00 00 00 00 00 00 00  ................
                                                        00009000: aa aa aa aa aa aa aa aa aa aa aa aa 00 aa aa aa  ................
                                                        00009010: aa aa aa aa aa aa aa aa aa aa aa aa aa aa aa aa  ................
   290.00ns INFO     cocotb.tb                          length 1, read_offset 8, write_offset 4088
   340.00ns INFO     cocotb.axi_cdma_wrapper.m_axi      Write burst awid: 0x0 awaddr: 0x00009ff8 awlen: 0 awsize: 2 awprot: AxiProt.NONSECURE
   340.00ns INFO     cocotb.axi_cdma_wrapper.m_axi      Read burst arid: 0x0 araddr: 0x00001008 arlen: 0 arsize: 2 arprot: AxiProt.NONSECURE
   410.00ns INFO     cocotb.tb                          status: DescStatusTransaction(tag=3, error=0)
   410.00ns DEBUG    cocotb.tb                          00009fe0: aa aa aa aa aa aa aa aa aa aa aa aa aa aa aa aa  ................
                                                        00009ff0: aa aa aa aa aa aa aa aa 00 aa aa aa aa aa aa aa  ................
                                                        0000a000: aa aa aa aa aa aa aa aa aa aa aa aa aa aa aa aa  ................
   410.00ns INFO     cocotb.tb                          length 1, read_offset 8, write_offset 4092
   460.00ns INFO     cocotb.axi_cdma_wrapper.m_axi      Write burst awid: 0x0 awaddr: 0x00009ffc awlen: 0 awsize: 2 awprot: AxiProt.NONSECURE
   460.00ns INFO     cocotb.axi_cdma_wrapper.m_axi      Read burst arid: 0x0 araddr: 0x00001008 arlen: 0 arsize: 2 arprot: AxiProt.NONSECURE
   530.00ns INFO     cocotb.tb                          status: DescStatusTransaction(tag=4, error=0)
   530.00ns DEBUG    cocotb.tb                          00009fe0: aa aa aa aa aa aa aa aa aa aa aa aa aa aa aa aa  ................
                                                        00009ff0: aa aa aa aa aa aa aa aa aa aa aa aa 00 aa aa aa  ................
                                                        0000a000: aa aa aa aa aa aa aa aa aa aa aa aa aa aa aa aa  ................
   530.00ns INFO     cocotb.tb                          length 1, read_offset 12, write_offset 8
   580.00ns INFO     cocotb.axi_cdma_wrapper.m_axi      Write burst awid: 0x0 awaddr: 0x00009008 awlen: 0 awsize: 2 awprot: AxiProt.NONSECURE
   580.00ns INFO     cocotb.axi_cdma_wrapper.m_axi      Read burst arid: 0x0 araddr: 0x0000100c arlen: 0 arsize: 2 arprot: AxiProt.NONSECURE
   650.00ns INFO     cocotb.tb                          status: DescStatusTransaction(tag=5, error=0)
   650.00ns DEBUG    cocotb.tb                          00008ff0: 00 00 00 00 00 00 00 00 00 00 00 00 00 00 00 00  ................
                                                        00009000: aa aa aa aa aa aa aa aa 00 aa aa aa aa aa aa aa  ................
                                                        00009010: aa aa aa aa aa aa aa aa aa aa aa aa aa aa aa aa  ................
   650.00ns INFO     cocotb.tb                          length 1, read_offset 12, write_offset 12
   700.00ns INFO     cocotb.axi_cdma_wrapper.m_axi      Write burst awid: 0x0 awaddr: 0x0000900c awlen: 0 awsize: 2 awprot: AxiProt.NONSECURE
   700.00ns INFO     cocotb.axi_cdma_wrapper.m_axi      Read burst arid: 0x0 araddr: 0x0000100c arlen: 0 arsize: 2 arprot: AxiProt.NONSECURE
   770.00ns INFO     cocotb.tb                          status: DescStatusTransaction(tag=6, error=0)
   770.00ns DEBUG    cocotb.tb                          00008ff0: 00 00 00 00 00 00 00 00 00 00 00 00 00 00 00 00  ................
                                                        00009000: aa aa aa aa aa aa aa aa aa aa aa aa 00 aa aa aa  ................
                                                        00009010: aa aa aa aa aa aa aa aa aa aa aa aa aa aa aa aa  ................
   770.00ns INFO     cocotb.tb                          length 1, read_offset 12, write_offset 4088
   820.00ns INFO     cocotb.axi_cdma_wrapper.m_axi      Write burst awid: 0x0 awaddr: 0x00009ff8 awlen: 0 awsize: 2 awprot: AxiProt.NONSECURE
   820.00ns INFO     cocotb.axi_cdma_wrapper.m_axi      Read burst arid: 0x0 araddr: 0x0000100c arlen: 0 arsize: 2 arprot: AxiProt.NONSECURE
   890.00ns INFO     cocotb.tb                          status: DescStatusTransaction(tag=7, error=0)
   890.00ns DEBUG    cocotb.tb                          00009fe0: aa aa aa aa aa aa aa aa aa aa aa aa aa aa aa aa  ................
                                                        00009ff0: aa aa aa aa aa aa aa aa 00 aa aa aa aa aa aa aa  ................
                                                        0000a000: aa aa aa aa aa aa aa aa aa aa aa aa aa aa aa aa  ................
   890.00ns INFO     cocotb.tb                          length 1, read_offset 12, write_offset 4092
   940.00ns INFO     cocotb.axi_cdma_wrapper.m_axi      Write burst awid: 0x0 awaddr: 0x00009ffc awlen: 0 awsize: 2 awprot: AxiProt.NONSECURE
   940.00ns INFO     cocotb.axi_cdma_wrapper.m_axi      Read burst arid: 0x0 araddr: 0x0000100c arlen: 0 arsize: 2 arprot: AxiProt.NONSECURE
  1010.00ns INFO     cocotb.tb                          status: DescStatusTransaction(tag=8, error=0)
  1010.00ns DEBUG    cocotb.tb                          00009fe0: aa aa aa aa aa aa aa aa aa aa aa aa aa aa aa aa  ................
                                                        00009ff0: aa aa aa aa aa aa aa aa aa aa aa aa 00 aa aa aa  ................
                                                        0000a000: aa aa aa aa aa aa aa aa aa aa aa aa aa aa aa aa  ................
  1010.00ns INFO     cocotb.tb                          length 1, read_offset 4088, write_offset 8
  1060.00ns INFO     cocotb.axi_cdma_wrapper.m_axi      Write burst awid: 0x0 awaddr: 0x00009008 awlen: 0 awsize: 2 awprot: AxiProt.NONSECURE
  1060.00ns INFO     cocotb.axi_cdma_wrapper.m_axi      Read burst arid: 0x0 araddr: 0x00001ff8 arlen: 0 arsize: 2 arprot: AxiProt.NONSECURE
  1130.00ns INFO     cocotb.tb                          status: DescStatusTransaction(tag=9, error=0)
  1130.00ns DEBUG    cocotb.tb                          00008ff0: 00 00 00 00 00 00 00 00 00 00 00 00 00 00 00 00  ................
                                                        00009000: aa aa aa aa aa aa aa aa 00 aa aa aa aa aa aa aa  ................
                                                        00009010: aa aa aa aa aa aa aa aa aa aa aa aa aa aa aa aa  ................
  1130.00ns INFO     cocotb.tb                          length 1, read_offset 4088, write_offset 12
  1180.00ns INFO     cocotb.axi_cdma_wrapper.m_axi      Write burst awid: 0x0 awaddr: 0x0000900c awlen: 0 awsize: 2 awprot: AxiProt.NONSECURE
  1180.00ns INFO     cocotb.axi_cdma_wrapper.m_axi      Read burst arid: 0x0 araddr: 0x00001ff8 arlen: 0 arsize: 2 arprot: AxiProt.NONSECURE
  1250.00ns INFO     cocotb.tb                          status: DescStatusTransaction(tag=10, error=0)
  1250.00ns DEBUG    cocotb.tb                          00008ff0: 00 00 00 00 00 00 00 00 00 00 00 00 00 00 00 00  ................
                                                        00009000: aa aa aa aa aa aa aa aa aa aa aa aa 00 aa aa aa  ................
                                                        00009010: aa aa aa aa aa aa aa aa aa aa aa aa aa aa aa aa  ................
  1250.00ns INFO     cocotb.tb                          length 1, read_offset 4088, write_offset 4088
  1300.00ns INFO     cocotb.axi_cdma_wrapper.m_axi      Write burst awid: 0x0 awaddr: 0x00009ff8 awlen: 0 awsize: 2 awprot: AxiProt.NONSECURE
  1300.00ns INFO     cocotb.axi_cdma_wrapper.m_axi      Read burst arid: 0x0 araddr: 0x00001ff8 arlen: 0 arsize: 2 arprot: AxiProt.NONSECURE
  1370.00ns INFO     cocotb.tb                          status: DescStatusTransaction(tag=11, error=0)
  1370.00ns DEBUG    cocotb.tb                          00009fe0: aa aa aa aa aa aa aa aa aa aa aa aa aa aa aa aa  ................
                                                        00009ff0: aa aa aa aa aa aa aa aa 00 aa aa aa aa aa aa aa  ................
                                                        0000a000: aa aa aa aa aa aa aa aa aa aa aa aa aa aa aa aa  ................
  1370.00ns INFO     cocotb.tb                          length 1, read_offset 4088, write_offset 4092
  1420.00ns INFO     cocotb.axi_cdma_wrapper.m_axi      Write burst awid: 0x0 awaddr: 0x00009ffc awlen: 0 awsize: 2 awprot: AxiProt.NONSECURE
  1420.00ns INFO     cocotb.axi_cdma_wrapper.m_axi      Read burst arid: 0x0 araddr: 0x00001ff8 arlen: 0 arsize: 2 arprot: AxiProt.NONSECURE
  1490.00ns INFO     cocotb.tb                          status: DescStatusTransaction(tag=12, error=0)
  1490.00ns DEBUG    cocotb.tb                          00009fe0: aa aa aa aa aa aa aa aa aa aa aa aa aa aa aa aa  ................
                                                        00009ff0: aa aa aa aa aa aa aa aa aa aa aa aa 00 aa aa aa  ................
                                                        0000a000: aa aa aa aa aa aa aa aa aa aa aa aa aa aa aa aa  ................
  1490.00ns INFO     cocotb.tb                          length 1, read_offset 4092, write_offset 8
  1540.00ns INFO     cocotb.axi_cdma_wrapper.m_axi      Write burst awid: 0x0 awaddr: 0x00009008 awlen: 0 awsize: 2 awprot: AxiProt.NONSECURE
  1540.00ns INFO     cocotb.axi_cdma_wrapper.m_axi      Read burst arid: 0x0 araddr: 0x00001ffc arlen: 0 arsize: 2 arprot: AxiProt.NONSECURE
  1610.00ns INFO     cocotb.tb                          status: DescStatusTransaction(tag=13, error=0)
  1610.00ns DEBUG    cocotb.tb                          00008ff0: 00 00 00 00 00 00 00 00 00 00 00 00 00 00 00 00  ................
                                                        00009000: aa aa aa aa aa aa aa aa 00 aa aa aa aa aa aa aa  ................
                                                        00009010: aa aa aa aa aa aa aa aa aa aa aa aa aa aa aa aa  ................
  1610.00ns INFO     cocotb.tb                          length 1, read_offset 4092, write_offset 12
  1660.00ns INFO     cocotb.axi_cdma_wrapper.m_axi      Write burst awid: 0x0 awaddr: 0x0000900c awlen: 0 awsize: 2 awprot: AxiProt.NONSECURE
  1660.00ns INFO     cocotb.axi_cdma_wrapper.m_axi      Read burst arid: 0x0 araddr: 0x00001ffc arlen: 0 arsize: 2 arprot: AxiProt.NONSECURE
  1730.00ns INFO     cocotb.tb                          status: DescStatusTransaction(tag=14, error=0)
  1730.00ns DEBUG    cocotb.tb                          00008ff0: 00 00 00 00 00 00 00 00 00 00 00 00 00 00 00 00  ................
                                                        00009000: aa aa aa aa aa aa aa aa aa aa aa aa 00 aa aa aa  ................
                                                        00009010: aa aa aa aa aa aa aa aa aa aa aa aa aa aa aa aa  ................
  1730.00ns INFO     cocotb.tb                          length 1, read_offset 4092, write_offset 4088
  1780.00ns INFO     cocotb.axi_cdma_wrapper.m_axi      Write burst awid: 0x0 awaddr: 0x00009ff8 awlen: 0 awsize: 2 awprot: AxiProt.NONSECURE
  1780.00ns INFO     cocotb.axi_cdma_wrapper.m_axi      Read burst arid: 0x0 araddr: 0x00001ffc arlen: 0 arsize: 2 arprot: AxiProt.NONSECURE
  1850.00ns INFO     cocotb.tb                          status: DescStatusTransaction(tag=15, error=0)
  1850.00ns DEBUG    cocotb.tb                          00009fe0: aa aa aa aa aa aa aa aa aa aa aa aa aa aa aa aa  ................
                                                        00009ff0: aa aa aa aa aa aa aa aa 00 aa aa aa aa aa aa aa  ................
                                                        0000a000: aa aa aa aa aa aa aa aa aa aa aa aa aa aa aa aa  ................
  1850.00ns INFO     cocotb.tb                          length 1, read_offset 4092, write_offset 4092
  1900.00ns INFO     cocotb.axi_cdma_wrapper.m_axi      Write burst awid: 0x0 awaddr: 0x00009ffc awlen: 0 awsize: 2 awprot: AxiProt.NONSECURE
  1900.00ns INFO     cocotb.axi_cdma_wrapper.m_axi      Read burst arid: 0x0 araddr: 0x00001ffc arlen: 0 arsize: 2 arprot: AxiProt.NONSECURE
  1970.00ns INFO     cocotb.tb                          status: DescStatusTransaction(tag=16, error=0)
  1970.00ns DEBUG    cocotb.tb                          00009fe0: aa aa aa aa aa aa aa aa aa aa aa aa aa aa aa aa  ................
                                                        00009ff0: aa aa aa aa aa aa aa aa aa aa aa aa 00 aa aa aa  ................
                                                        0000a000: aa aa aa aa aa aa aa aa aa aa aa aa aa aa aa aa  ................
  1970.00ns INFO     cocotb.tb                          length 2, read_offset 8, write_offset 8
  2020.00ns INFO     cocotb.axi_cdma_wrapper.m_axi      Write burst awid: 0x0 awaddr: 0x00009008 awlen: 0 awsize: 2 awprot: AxiProt.NONSECURE
  2020.00ns INFO     cocotb.axi_cdma_wrapper.m_axi      Read burst arid: 0x0 araddr: 0x00001008 arlen: 0 arsize: 2 arprot: AxiProt.NONSECURE
  2090.00ns INFO     cocotb.tb                          status: DescStatusTransaction(tag=17, error=0)
  2090.00ns DEBUG    cocotb.tb                          00008ff0: 00 00 00 00 00 00 00 00 00 00 00 00 00 00 00 00  ................
                                                        00009000: aa aa aa aa aa aa aa aa 00 01 aa aa aa aa aa aa  ................
                                                        00009010: aa aa aa aa aa aa aa aa aa aa aa aa aa aa aa aa  ................
  2090.00ns INFO     cocotb.tb                          length 2, read_offset 8, write_offset 12
  2140.00ns INFO     cocotb.axi_cdma_wrapper.m_axi      Write burst awid: 0x0 awaddr: 0x0000900c awlen: 0 awsize: 2 awprot: AxiProt.NONSECURE
  2140.00ns INFO     cocotb.axi_cdma_wrapper.m_axi      Read burst arid: 0x0 araddr: 0x00001008 arlen: 0 arsize: 2 arprot: AxiProt.NONSECURE
  2210.00ns INFO     cocotb.tb                          status: DescStatusTransaction(tag=18, error=0)
  2210.00ns DEBUG    cocotb.tb                          00008ff0: 00 00 00 00 00 00 00 00 00 00 00 00 00 00 00 00  ................
                                                        00009000: aa aa aa aa aa aa aa aa aa aa aa aa 00 01 aa aa  ................
                                                        00009010: aa aa aa aa aa aa aa aa aa aa aa aa aa aa aa aa  ................
  2210.00ns INFO     cocotb.tb                          length 2, read_offset 8, write_offset 4088
  2260.00ns INFO     cocotb.axi_cdma_wrapper.m_axi      Write burst awid: 0x0 awaddr: 0x00009ff8 awlen: 0 awsize: 2 awprot: AxiProt.NONSECURE
  2260.00ns INFO     cocotb.axi_cdma_wrapper.m_axi      Read burst arid: 0x0 araddr: 0x00001008 arlen: 0 arsize: 2 arprot: AxiProt.NONSECURE
  2330.00ns INFO     cocotb.tb                          status: DescStatusTransaction(tag=19, error=0)
  2330.00ns DEBUG    cocotb.tb                          00009fe0: aa aa aa aa aa aa aa aa aa aa aa aa aa aa aa aa  ................
                                                        00009ff0: aa aa aa aa aa aa aa aa 00 01 aa aa aa aa aa aa  ................
                                                        0000a000: aa aa aa aa aa aa aa aa aa aa aa aa aa aa aa aa  ................
  2330.00ns INFO     cocotb.tb                          length 2, read_offset 8, write_offset 4092
  2380.00ns INFO     cocotb.axi_cdma_wrapper.m_axi      Write burst awid: 0x0 awaddr: 0x00009ffc awlen: 0 awsize: 2 awprot: AxiProt.NONSECURE
  2380.00ns INFO     cocotb.axi_cdma_wrapper.m_axi      Read burst arid: 0x0 araddr: 0x00001008 arlen: 0 arsize: 2 arprot: AxiProt.NONSECURE
  2450.00ns INFO     cocotb.tb                          status: DescStatusTransaction(tag=20, error=0)
  2450.00ns DEBUG    cocotb.tb                          00009fe0: aa aa aa aa aa aa aa aa aa aa aa aa aa aa aa aa  ................
                                                        00009ff0: aa aa aa aa aa aa aa aa aa aa aa aa 00 01 aa aa  ................
                                                        0000a000: aa aa aa aa aa aa aa aa aa aa aa aa aa aa aa aa  ................
  2450.00ns INFO     cocotb.tb                          length 2, read_offset 12, write_offset 8
  2500.00ns INFO     cocotb.axi_cdma_wrapper.m_axi      Write burst awid: 0x0 awaddr: 0x00009008 awlen: 0 awsize: 2 awprot: AxiProt.NONSECURE
  2500.00ns INFO     cocotb.axi_cdma_wrapper.m_axi      Read burst arid: 0x0 araddr: 0x0000100c arlen: 0 arsize: 2 arprot: AxiProt.NONSECURE
  2570.00ns INFO     cocotb.tb                          status: DescStatusTransaction(tag=21, error=0)
  2570.00ns DEBUG    cocotb.tb                          00008ff0: 00 00 00 00 00 00 00 00 00 00 00 00 00 00 00 00  ................
                                                        00009000: aa aa aa aa aa aa aa aa 00 01 aa aa aa aa aa aa  ................
                                                        00009010: aa aa aa aa aa aa aa aa aa aa aa aa aa aa aa aa  ................
  2570.00ns INFO     cocotb.tb                          length 2, read_offset 12, write_offset 12
  2620.00ns INFO     cocotb.axi_cdma_wrapper.m_axi      Write burst awid: 0x0 awaddr: 0x0000900c awlen: 0 awsize: 2 awprot: AxiProt.NONSECURE
  2620.00ns INFO     cocotb.axi_cdma_wrapper.m_axi      Read burst arid: 0x0 araddr: 0x0000100c arlen: 0 arsize: 2 arprot: AxiProt.NONSECURE
  2690.00ns INFO     cocotb.tb                          status: DescStatusTransaction(tag=22, error=0)
  2690.00ns DEBUG    cocotb.tb                          00008ff0: 00 00 00 00 00 00 00 00 00 00 00 00 00 00 00 00  ................
                                                        00009000: aa aa aa aa aa aa aa aa aa aa aa aa 00 01 aa aa  ................
                                                        00009010: aa aa aa aa aa aa aa aa aa aa aa aa aa aa aa aa  ................
  2690.00ns INFO     cocotb.tb                          length 2, read_offset 12, write_offset 4088
  2740.00ns INFO     cocotb.axi_cdma_wrapper.m_axi      Write burst awid: 0x0 awaddr: 0x00009ff8 awlen: 0 awsize: 2 awprot: AxiProt.NONSECURE
  2740.00ns INFO     cocotb.axi_cdma_wrapper.m_axi      Read burst arid: 0x0 araddr: 0x0000100c arlen: 0 arsize: 2 arprot: AxiProt.NONSECURE
  2810.00ns INFO     cocotb.tb                          status: DescStatusTransaction(tag=23, error=0)
  2810.00ns DEBUG    cocotb.tb                          00009fe0: aa aa aa aa aa aa aa aa aa aa aa aa aa aa aa aa  ................
                                                        00009ff0: aa aa aa aa aa aa aa aa 00 01 aa aa aa aa aa aa  ................
                                                        0000a000: aa aa aa aa aa aa aa aa aa aa aa aa aa aa aa aa  ................
  2810.00ns INFO     cocotb.tb                          length 2, read_offset 12, write_offset 4092
  2860.00ns INFO     cocotb.axi_cdma_wrapper.m_axi      Write burst awid: 0x0 awaddr: 0x00009ffc awlen: 0 awsize: 2 awprot: AxiProt.NONSECURE
  2860.00ns INFO     cocotb.axi_cdma_wrapper.m_axi      Read burst arid: 0x0 araddr: 0x0000100c arlen: 0 arsize: 2 arprot: AxiProt.NONSECURE
  2930.00ns INFO     cocotb.tb                          status: DescStatusTransaction(tag=24, error=0)
  2930.00ns DEBUG    cocotb.tb                          00009fe0: aa aa aa aa aa aa aa aa aa aa aa aa aa aa aa aa  ................
                                                        00009ff0: aa aa aa aa aa aa aa aa aa aa aa aa 00 01 aa aa  ................
                                                        0000a000: aa aa aa aa aa aa aa aa aa aa aa aa aa aa aa aa  ................
  2930.00ns INFO     cocotb.tb                          length 2, read_offset 4088, write_offset 8
  2980.00ns INFO     cocotb.axi_cdma_wrapper.m_axi      Write burst awid: 0x0 awaddr: 0x00009008 awlen: 0 awsize: 2 awprot: AxiProt.NONSECURE
  2980.00ns INFO     cocotb.axi_cdma_wrapper.m_axi      Read burst arid: 0x0 araddr: 0x00001ff8 arlen: 0 arsize: 2 arprot: AxiProt.NONSECURE
  3050.00ns INFO     cocotb.tb                          status: DescStatusTransaction(tag=25, error=0)
  3050.00ns DEBUG    cocotb.tb                          00008ff0: 00 00 00 00 00 00 00 00 00 00 00 00 00 00 00 00  ................
                                                        00009000: aa aa aa aa aa aa aa aa 00 01 aa aa aa aa aa aa  ................
                                                        00009010: aa aa aa aa aa aa aa aa aa aa aa aa aa aa aa aa  ................
  3050.00ns INFO     cocotb.tb                          length 2, read_offset 4088, write_offset 12
  3100.00ns INFO     cocotb.axi_cdma_wrapper.m_axi      Write burst awid: 0x0 awaddr: 0x0000900c awlen: 0 awsize: 2 awprot: AxiProt.NONSECURE
  3100.00ns INFO     cocotb.axi_cdma_wrapper.m_axi      Read burst arid: 0x0 araddr: 0x00001ff8 arlen: 0 arsize: 2 arprot: AxiProt.NONSECURE
  3170.00ns INFO     cocotb.tb                          status: DescStatusTransaction(tag=26, error=0)
  3170.00ns DEBUG    cocotb.tb                          00008ff0: 00 00 00 00 00 00 00 00 00 00 00 00 00 00 00 00  ................
                                                        00009000: aa aa aa aa aa aa aa aa aa aa aa aa 00 01 aa aa  ................
                                                        00009010: aa aa aa aa aa aa aa aa aa aa aa aa aa aa aa aa  ................
  3170.00ns INFO     cocotb.tb                          length 2, read_offset 4088, write_offset 4088
  3220.00ns INFO     cocotb.axi_cdma_wrapper.m_axi      Write burst awid: 0x0 awaddr: 0x00009ff8 awlen: 0 awsize: 2 awprot: AxiProt.NONSECURE
  3220.00ns INFO     cocotb.axi_cdma_wrapper.m_axi      Read burst arid: 0x0 araddr: 0x00001ff8 arlen: 0 arsize: 2 arprot: AxiProt.NONSECURE
  3290.00ns INFO     cocotb.tb                          status: DescStatusTransaction(tag=27, error=0)
  3290.00ns DEBUG    cocotb.tb                          00009fe0: aa aa aa aa aa aa aa aa aa aa aa aa aa aa aa aa  ................
                                                        00009ff0: aa aa aa aa aa aa aa aa 00 01 aa aa aa aa aa aa  ................
                                                        0000a000: aa aa aa aa aa aa aa aa aa aa aa aa aa aa aa aa  ................
  3290.00ns INFO     cocotb.tb                          length 2, read_offset 4088, write_offset 4092
  3340.00ns INFO     cocotb.axi_cdma_wrapper.m_axi      Write burst awid: 0x0 awaddr: 0x00009ffc awlen: 0 awsize: 2 awprot: AxiProt.NONSECURE
  3340.00ns INFO     cocotb.axi_cdma_wrapper.m_axi      Read burst arid: 0x0 araddr: 0x00001ff8 arlen: 0 arsize: 2 arprot: AxiProt.NONSECURE
  3410.00ns INFO     cocotb.tb                          status: DescStatusTransaction(tag=28, error=0)
  3410.00ns DEBUG    cocotb.tb                          00009fe0: aa aa aa aa aa aa aa aa aa aa aa aa aa aa aa aa  ................
                                                        00009ff0: aa aa aa aa aa aa aa aa aa aa aa aa 00 01 aa aa  ................
                                                        0000a000: aa aa aa aa aa aa aa aa aa aa aa aa aa aa aa aa  ................
  3410.00ns INFO     cocotb.tb                          length 2, read_offset 4092, write_offset 8
  3460.00ns INFO     cocotb.axi_cdma_wrapper.m_axi      Write burst awid: 0x0 awaddr: 0x00009008 awlen: 0 awsize: 2 awprot: AxiProt.NONSECURE
  3460.00ns INFO     cocotb.axi_cdma_wrapper.m_axi      Read burst arid: 0x0 araddr: 0x00001ffc arlen: 0 arsize: 2 arprot: AxiProt.NONSECURE
  3530.00ns INFO     cocotb.tb                          status: DescStatusTransaction(tag=29, error=0)
  3530.00ns DEBUG    cocotb.tb                          00008ff0: 00 00 00 00 00 00 00 00 00 00 00 00 00 00 00 00  ................
                                                        00009000: aa aa aa aa aa aa aa aa 00 01 aa aa aa aa aa aa  ................
                                                        00009010: aa aa aa aa aa aa aa aa aa aa aa aa aa aa aa aa  ................
  3530.00ns INFO     cocotb.tb                          length 2, read_offset 4092, write_offset 12
  3580.00ns INFO     cocotb.axi_cdma_wrapper.m_axi      Write burst awid: 0x0 awaddr: 0x0000900c awlen: 0 awsize: 2 awprot: AxiProt.NONSECURE
  3580.00ns INFO     cocotb.axi_cdma_wrapper.m_axi      Read burst arid: 0x0 araddr: 0x00001ffc arlen: 0 arsize: 2 arprot: AxiProt.NONSECURE
  3650.00ns INFO     cocotb.tb                          status: DescStatusTransaction(tag=30, error=0)
  3650.00ns DEBUG    cocotb.tb                          00008ff0: 00 00 00 00 00 00 00 00 00 00 00 00 00 00 00 00  ................
                                                        00009000: aa aa aa aa aa aa aa aa aa aa aa aa 00 01 aa aa  ................
                                                        00009010: aa aa aa aa aa aa aa aa aa aa aa aa aa aa aa aa  ................
  3650.00ns INFO     cocotb.tb                          length 2, read_offset 4092, write_offset 4088
  3700.00ns INFO     cocotb.axi_cdma_wrapper.m_axi      Write burst awid: 0x0 awaddr: 0x00009ff8 awlen: 0 awsize: 2 awprot: AxiProt.NONSECURE
  3700.00ns INFO     cocotb.axi_cdma_wrapper.m_axi      Read burst arid: 0x0 araddr: 0x00001ffc arlen: 0 arsize: 2 arprot: AxiProt.NONSECURE
  3770.00ns INFO     cocotb.tb                          status: DescStatusTransaction(tag=31, error=0)
  3770.00ns DEBUG    cocotb.tb                          00009fe0: aa aa aa aa aa aa aa aa aa aa aa aa aa aa aa aa  ................
                                                        00009ff0: aa aa aa aa aa aa aa aa 00 01 aa aa aa aa aa aa  ................
                                                        0000a000: aa aa aa aa aa aa aa aa aa aa aa aa aa aa aa aa  ................
  3770.00ns INFO     cocotb.tb                          length 2, read_offset 4092, write_offset 4092
  3820.00ns INFO     cocotb.axi_cdma_wrapper.m_axi      Write burst awid: 0x0 awaddr: 0x00009ffc awlen: 0 awsize: 2 awprot: AxiProt.NONSECURE
  3820.00ns INFO     cocotb.axi_cdma_wrapper.m_axi      Read burst arid: 0x0 araddr: 0x00001ffc arlen: 0 arsize: 2 arprot: AxiProt.NONSECURE
  3890.00ns INFO     cocotb.tb                          status: DescStatusTransaction(tag=32, error=0)
  3890.00ns DEBUG    cocotb.tb                          00009fe0: aa aa aa aa aa aa aa aa aa aa aa aa aa aa aa aa  ................
                                                        00009ff0: aa aa aa aa aa aa aa aa aa aa aa aa 00 01 aa aa  ................
                                                        0000a000: aa aa aa aa aa aa aa aa aa aa aa aa aa aa aa aa  ................
  3890.00ns INFO     cocotb.tb                          length 3, read_offset 8, write_offset 8
  3940.00ns INFO     cocotb.axi_cdma_wrapper.m_axi      Write burst awid: 0x0 awaddr: 0x00009008 awlen: 0 awsize: 2 awprot: AxiProt.NONSECURE
  3940.00ns INFO     cocotb.axi_cdma_wrapper.m_axi      Read burst arid: 0x0 araddr: 0x00001008 arlen: 0 arsize: 2 arprot: AxiProt.NONSECURE
  4010.00ns INFO     cocotb.tb                          status: DescStatusTransaction(tag=33, error=0)
  4010.00ns DEBUG    cocotb.tb                          00008ff0: 00 00 00 00 00 00 00 00 00 00 00 00 00 00 00 00  ................
                                                        00009000: aa aa aa aa aa aa aa aa 00 01 02 aa aa aa aa aa  ................
                                                        00009010: aa aa aa aa aa aa aa aa aa aa aa aa aa aa aa aa  ................
  4010.00ns INFO     cocotb.tb                          length 3, read_offset 8, write_offset 12
  4060.00ns INFO     cocotb.axi_cdma_wrapper.m_axi      Write burst awid: 0x0 awaddr: 0x0000900c awlen: 0 awsize: 2 awprot: AxiProt.NONSECURE
  4060.00ns INFO     cocotb.axi_cdma_wrapper.m_axi      Read burst arid: 0x0 araddr: 0x00001008 arlen: 0 arsize: 2 arprot: AxiProt.NONSECURE
  4130.00ns INFO     cocotb.tb                          status: DescStatusTransaction(tag=34, error=0)
  4130.00ns DEBUG    cocotb.tb                          00008ff0: 00 00 00 00 00 00 00 00 00 00 00 00 00 00 00 00  ................
                                                        00009000: aa aa aa aa aa aa aa aa aa aa aa aa 00 01 02 aa  ................
                                                        00009010: aa aa aa aa aa aa aa aa aa aa aa aa aa aa aa aa  ................
  4130.00ns INFO     cocotb.tb                          length 3, read_offset 8, write_offset 4088
  4180.00ns INFO     cocotb.axi_cdma_wrapper.m_axi      Write burst awid: 0x0 awaddr: 0x00009ff8 awlen: 0 awsize: 2 awprot: AxiProt.NONSECURE
  4180.00ns INFO     cocotb.axi_cdma_wrapper.m_axi      Read burst arid: 0x0 araddr: 0x00001008 arlen: 0 arsize: 2 arprot: AxiProt.NONSECURE
  4250.00ns INFO     cocotb.tb                          status: DescStatusTransaction(tag=35, error=0)
  4250.00ns DEBUG    cocotb.tb                          00009fe0: aa aa aa aa aa aa aa aa aa aa aa aa aa aa aa aa  ................
                                                        00009ff0: aa aa aa aa aa aa aa aa 00 01 02 aa aa aa aa aa  ................
                                                        0000a000: aa aa aa aa aa aa aa aa aa aa aa aa aa aa aa aa  ................
  4250.00ns INFO     cocotb.tb                          length 3, read_offset 8, write_offset 4092
  4300.00ns INFO     cocotb.axi_cdma_wrapper.m_axi      Write burst awid: 0x0 awaddr: 0x00009ffc awlen: 0 awsize: 2 awprot: AxiProt.NONSECURE
  4300.00ns INFO     cocotb.axi_cdma_wrapper.m_axi      Read burst arid: 0x0 araddr: 0x00001008 arlen: 0 arsize: 2 arprot: AxiProt.NONSECURE
  4370.00ns INFO     cocotb.tb                          status: DescStatusTransaction(tag=36, error=0)
  4370.00ns DEBUG    cocotb.tb                          00009fe0: aa aa aa aa aa aa aa aa aa aa aa aa aa aa aa aa  ................
                                                        00009ff0: aa aa aa aa aa aa aa aa aa aa aa aa 00 01 02 aa  ................
                                                        0000a000: aa aa aa aa aa aa aa aa aa aa aa aa aa aa aa aa  ................
  4370.00ns INFO     cocotb.tb                          length 3, read_offset 12, write_offset 8
  4420.00ns INFO     cocotb.axi_cdma_wrapper.m_axi      Write burst awid: 0x0 awaddr: 0x00009008 awlen: 0 awsize: 2 awprot: AxiProt.NONSECURE
  4420.00ns INFO     cocotb.axi_cdma_wrapper.m_axi      Read burst arid: 0x0 araddr: 0x0000100c arlen: 0 arsize: 2 arprot: AxiProt.NONSECURE
  4490.00ns INFO     cocotb.tb                          status: DescStatusTransaction(tag=37, error=0)
  4490.00ns DEBUG    cocotb.tb                          00008ff0: 00 00 00 00 00 00 00 00 00 00 00 00 00 00 00 00  ................
                                                        00009000: aa aa aa aa aa aa aa aa 00 01 02 aa aa aa aa aa  ................
                                                        00009010: aa aa aa aa aa aa aa aa aa aa aa aa aa aa aa aa  ................
  4490.00ns INFO     cocotb.tb                          length 3, read_offset 12, write_offset 12
  4540.00ns INFO     cocotb.axi_cdma_wrapper.m_axi      Write burst awid: 0x0 awaddr: 0x0000900c awlen: 0 awsize: 2 awprot: AxiProt.NONSECURE
  4540.00ns INFO     cocotb.axi_cdma_wrapper.m_axi      Read burst arid: 0x0 araddr: 0x0000100c arlen: 0 arsize: 2 arprot: AxiProt.NONSECURE
  4610.00ns INFO     cocotb.tb                          status: DescStatusTransaction(tag=38, error=0)
  4610.00ns DEBUG    cocotb.tb                          00008ff0: 00 00 00 00 00 00 00 00 00 00 00 00 00 00 00 00  ................
                                                        00009000: aa aa aa aa aa aa aa aa aa aa aa aa 00 01 02 aa  ................
                                                        00009010: aa aa aa aa aa aa aa aa aa aa aa aa aa aa aa aa  ................
  4610.00ns INFO     cocotb.tb                          length 3, read_offset 12, write_offset 4088
  4660.00ns INFO     cocotb.axi_cdma_wrapper.m_axi      Write burst awid: 0x0 awaddr: 0x00009ff8 awlen: 0 awsize: 2 awprot: AxiProt.NONSECURE
  4660.00ns INFO     cocotb.axi_cdma_wrapper.m_axi      Read burst arid: 0x0 araddr: 0x0000100c arlen: 0 arsize: 2 arprot: AxiProt.NONSECURE
  4730.00ns INFO     cocotb.tb                          status: DescStatusTransaction(tag=39, error=0)
  4730.00ns DEBUG    cocotb.tb                          00009fe0: aa aa aa aa aa aa aa aa aa aa aa aa aa aa aa aa  ................
                                                        00009ff0: aa aa aa aa aa aa aa aa 00 01 02 aa aa aa aa aa  ................
                                                        0000a000: aa aa aa aa aa aa aa aa aa aa aa aa aa aa aa aa  ................
  4730.00ns INFO     cocotb.tb                          length 3, read_offset 12, write_offset 4092
  4780.00ns INFO     cocotb.axi_cdma_wrapper.m_axi      Write burst awid: 0x0 awaddr: 0x00009ffc awlen: 0 awsize: 2 awprot: AxiProt.NONSECURE
  4780.00ns INFO     cocotb.axi_cdma_wrapper.m_axi      Read burst arid: 0x0 araddr: 0x0000100c arlen: 0 arsize: 2 arprot: AxiProt.NONSECURE
  4850.00ns INFO     cocotb.tb                          status: DescStatusTransaction(tag=40, error=0)
  4850.00ns DEBUG    cocotb.tb                          00009fe0: aa aa aa aa aa aa aa aa aa aa aa aa aa aa aa aa  ................
                                                        00009ff0: aa aa aa aa aa aa aa aa aa aa aa aa 00 01 02 aa  ................
                                                        0000a000: aa aa aa aa aa aa aa aa aa aa aa aa aa aa aa aa  ................
  4850.00ns INFO     cocotb.tb                          length 3, read_offset 4088, write_offset 8
  4900.00ns INFO     cocotb.axi_cdma_wrapper.m_axi      Write burst awid: 0x0 awaddr: 0x00009008 awlen: 0 awsize: 2 awprot: AxiProt.NONSECURE
  4900.00ns INFO     cocotb.axi_cdma_wrapper.m_axi      Read burst arid: 0x0 araddr: 0x00001ff8 arlen: 0 arsize: 2 arprot: AxiProt.NONSECURE
  4970.00ns INFO     cocotb.tb                          status: DescStatusTransaction(tag=41, error=0)
  4970.00ns DEBUG    cocotb.tb                          00008ff0: 00 00 00 00 00 00 00 00 00 00 00 00 00 00 00 00  ................
                                                        00009000: aa aa aa aa aa aa aa aa 00 01 02 aa aa aa aa aa  ................
                                                        00009010: aa aa aa aa aa aa aa aa aa aa aa aa aa aa aa aa  ................
  4970.00ns INFO     cocotb.tb                          length 3, read_offset 4088, write_offset 12
  5020.00ns INFO     cocotb.axi_cdma_wrapper.m_axi      Write burst awid: 0x0 awaddr: 0x0000900c awlen: 0 awsize: 2 awprot: AxiProt.NONSECURE
  5020.00ns INFO     cocotb.axi_cdma_wrapper.m_axi      Read burst arid: 0x0 araddr: 0x00001ff8 arlen: 0 arsize: 2 arprot: AxiProt.NONSECURE
  5090.00ns INFO     cocotb.tb                          status: DescStatusTransaction(tag=42, error=0)
  5090.00ns DEBUG    cocotb.tb                          00008ff0: 00 00 00 00 00 00 00 00 00 00 00 00 00 00 00 00  ................
                                                        00009000: aa aa aa aa aa aa aa aa aa aa aa aa 00 01 02 aa  ................
                                                        00009010: aa aa aa aa aa aa aa aa aa aa aa aa aa aa aa aa  ................
  5090.00ns INFO     cocotb.tb                          length 3, read_offset 4088, write_offset 4088
  5140.00ns INFO     cocotb.axi_cdma_wrapper.m_axi      Write burst awid: 0x0 awaddr: 0x00009ff8 awlen: 0 awsize: 2 awprot: AxiProt.NONSECURE
  5140.00ns INFO     cocotb.axi_cdma_wrapper.m_axi      Read burst arid: 0x0 araddr: 0x00001ff8 arlen: 0 arsize: 2 arprot: AxiProt.NONSECURE
  5210.00ns INFO     cocotb.tb                          status: DescStatusTransaction(tag=43, error=0)
  5210.00ns DEBUG    cocotb.tb                          00009fe0: aa aa aa aa aa aa aa aa aa aa aa aa aa aa aa aa  ................
                                                        00009ff0: aa aa aa aa aa aa aa aa 00 01 02 aa aa aa aa aa  ................
                                                        0000a000: aa aa aa aa aa aa aa aa aa aa aa aa aa aa aa aa  ................
  5210.00ns INFO     cocotb.tb                          length 3, read_offset 4088, write_offset 4092
  5260.00ns INFO     cocotb.axi_cdma_wrapper.m_axi      Write burst awid: 0x0 awaddr: 0x00009ffc awlen: 0 awsize: 2 awprot: AxiProt.NONSECURE
  5260.00ns INFO     cocotb.axi_cdma_wrapper.m_axi      Read burst arid: 0x0 araddr: 0x00001ff8 arlen: 0 arsize: 2 arprot: AxiProt.NONSECURE
  5330.00ns INFO     cocotb.tb                          status: DescStatusTransaction(tag=44, error=0)
  5330.00ns DEBUG    cocotb.tb                          00009fe0: aa aa aa aa aa aa aa aa aa aa aa aa aa aa aa aa  ................
                                                        00009ff0: aa aa aa aa aa aa aa aa aa aa aa aa 00 01 02 aa  ................
                                                        0000a000: aa aa aa aa aa aa aa aa aa aa aa aa aa aa aa aa  ................
  5330.00ns INFO     cocotb.tb                          length 3, read_offset 4092, write_offset 8
  5380.00ns INFO     cocotb.axi_cdma_wrapper.m_axi      Write burst awid: 0x0 awaddr: 0x00009008 awlen: 0 awsize: 2 awprot: AxiProt.NONSECURE
  5380.00ns INFO     cocotb.axi_cdma_wrapper.m_axi      Read burst arid: 0x0 araddr: 0x00001ffc arlen: 0 arsize: 2 arprot: AxiProt.NONSECURE
  5450.00ns INFO     cocotb.tb                          status: DescStatusTransaction(tag=45, error=0)
  5450.00ns DEBUG    cocotb.tb                          00008ff0: 00 00 00 00 00 00 00 00 00 00 00 00 00 00 00 00  ................
                                                        00009000: aa aa aa aa aa aa aa aa 00 01 02 aa aa aa aa aa  ................
                                                        00009010: aa aa aa aa aa aa aa aa aa aa aa aa aa aa aa aa  ................
  5450.00ns INFO     cocotb.tb                          length 3, read_offset 4092, write_offset 12
  5500.00ns INFO     cocotb.axi_cdma_wrapper.m_axi      Write burst awid: 0x0 awaddr: 0x0000900c awlen: 0 awsize: 2 awprot: AxiProt.NONSECURE
  5500.00ns INFO     cocotb.axi_cdma_wrapper.m_axi      Read burst arid: 0x0 araddr: 0x00001ffc arlen: 0 arsize: 2 arprot: AxiProt.NONSECURE
  5570.00ns INFO     cocotb.tb                          status: DescStatusTransaction(tag=46, error=0)
  5570.00ns DEBUG    cocotb.tb                          00008ff0: 00 00 00 00 00 00 00 00 00 00 00 00 00 00 00 00  ................
                                                        00009000: aa aa aa aa aa aa aa aa aa aa aa aa 00 01 02 aa  ................
                                                        00009010: aa aa aa aa aa aa aa aa aa aa aa aa aa aa aa aa  ................
  5570.00ns INFO     cocotb.tb                          length 3, read_offset 4092, write_offset 4088
  5620.00ns INFO     cocotb.axi_cdma_wrapper.m_axi      Write burst awid: 0x0 awaddr: 0x00009ff8 awlen: 0 awsize: 2 awprot: AxiProt.NONSECURE
  5620.00ns INFO     cocotb.axi_cdma_wrapper.m_axi      Read burst arid: 0x0 araddr: 0x00001ffc arlen: 0 arsize: 2 arprot: AxiProt.NONSECURE
  5690.00ns INFO     cocotb.tb                          status: DescStatusTransaction(tag=47, error=0)
  5690.00ns DEBUG    cocotb.tb                          00009fe0: aa aa aa aa aa aa aa aa aa aa aa aa aa aa aa aa  ................
                                                        00009ff0: aa aa aa aa aa aa aa aa 00 01 02 aa aa aa aa aa  ................
                                                        0000a000: aa aa aa aa aa aa aa aa aa aa aa aa aa aa aa aa  ................
  5690.00ns INFO     cocotb.tb                          length 3, read_offset 4092, write_offset 4092
  5740.00ns INFO     cocotb.axi_cdma_wrapper.m_axi      Write burst awid: 0x0 awaddr: 0x00009ffc awlen: 0 awsize: 2 awprot: AxiProt.NONSECURE
  5740.00ns INFO     cocotb.axi_cdma_wrapper.m_axi      Read burst arid: 0x0 araddr: 0x00001ffc arlen: 0 arsize: 2 arprot: AxiProt.NONSECURE
  5810.00ns INFO     cocotb.tb                          status: DescStatusTransaction(tag=48, error=0)
  5810.00ns DEBUG    cocotb.tb                          00009fe0: aa aa aa aa aa aa aa aa aa aa aa aa aa aa aa aa  ................
                                                        00009ff0: aa aa aa aa aa aa aa aa aa aa aa aa 00 01 02 aa  ................
                                                        0000a000: aa aa aa aa aa aa aa aa aa aa aa aa aa aa aa aa  ................
  5810.00ns INFO     cocotb.tb                          length 4, read_offset 8, write_offset 8
  5860.00ns INFO     cocotb.axi_cdma_wrapper.m_axi      Write burst awid: 0x0 awaddr: 0x00009008 awlen: 0 awsize: 2 awprot: AxiProt.NONSECURE
  5860.00ns INFO     cocotb.axi_cdma_wrapper.m_axi      Read burst arid: 0x0 araddr: 0x00001008 arlen: 0 arsize: 2 arprot: AxiProt.NONSECURE
  5930.00ns INFO     cocotb.tb                          status: DescStatusTransaction(tag=49, error=0)
  5930.00ns DEBUG    cocotb.tb                          00008ff0: 00 00 00 00 00 00 00 00 00 00 00 00 00 00 00 00  ................
                                                        00009000: aa aa aa aa aa aa aa aa 00 01 02 03 aa aa aa aa  ................
                                                        00009010: aa aa aa aa aa aa aa aa aa aa aa aa aa aa aa aa  ................
  5930.00ns INFO     cocotb.tb                          length 4, read_offset 8, write_offset 12
  5980.00ns INFO     cocotb.axi_cdma_wrapper.m_axi      Write burst awid: 0x0 awaddr: 0x0000900c awlen: 0 awsize: 2 awprot: AxiProt.NONSECURE
  5980.00ns INFO     cocotb.axi_cdma_wrapper.m_axi      Read burst arid: 0x0 araddr: 0x00001008 arlen: 0 arsize: 2 arprot: AxiProt.NONSECURE
  6050.00ns INFO     cocotb.tb                          status: DescStatusTransaction(tag=50, error=0)
  6050.00ns DEBUG    cocotb.tb                          00008ff0: 00 00 00 00 00 00 00 00 00 00 00 00 00 00 00 00  ................
                                                        00009000: aa aa aa aa aa aa aa aa aa aa aa aa 00 01 02 03  ................
                                                        00009010: aa aa aa aa aa aa aa aa aa aa aa aa aa aa aa aa  ................
  6050.00ns INFO     cocotb.tb                          length 4, read_offset 8, write_offset 4088
  6100.00ns INFO     cocotb.axi_cdma_wrapper.m_axi      Write burst awid: 0x0 awaddr: 0x00009ff8 awlen: 0 awsize: 2 awprot: AxiProt.NONSECURE
  6100.00ns INFO     cocotb.axi_cdma_wrapper.m_axi      Read burst arid: 0x0 araddr: 0x00001008 arlen: 0 arsize: 2 arprot: AxiProt.NONSECURE
  6170.00ns INFO     cocotb.tb                          status: DescStatusTransaction(tag=51, error=0)
  6170.00ns DEBUG    cocotb.tb                          00009fe0: aa aa aa aa aa aa aa aa aa aa aa aa aa aa aa aa  ................
                                                        00009ff0: aa aa aa aa aa aa aa aa 00 01 02 03 aa aa aa aa  ................
                                                        0000a000: aa aa aa aa aa aa aa aa aa aa aa aa aa aa aa aa  ................
  6170.00ns INFO     cocotb.tb                          length 4, read_offset 8, write_offset 4092
  6220.00ns INFO     cocotb.axi_cdma_wrapper.m_axi      Write burst awid: 0x0 awaddr: 0x00009ffc awlen: 0 awsize: 2 awprot: AxiProt.NONSECURE
  6220.00ns INFO     cocotb.axi_cdma_wrapper.m_axi      Read burst arid: 0x0 araddr: 0x00001008 arlen: 0 arsize: 2 arprot: AxiProt.NONSECURE
  6290.00ns INFO     cocotb.tb                          status: DescStatusTransaction(tag=52, error=0)
  6290.00ns DEBUG    cocotb.tb                          00009fe0: aa aa aa aa aa aa aa aa aa aa aa aa aa aa aa aa  ................
                                                        00009ff0: aa aa aa aa aa aa aa aa aa aa aa aa 00 01 02 03  ................
                                                        0000a000: aa aa aa aa aa aa aa aa aa aa aa aa aa aa aa aa  ................
  6290.00ns INFO     cocotb.tb                          length 4, read_offset 12, write_offset 8
  6340.00ns INFO     cocotb.axi_cdma_wrapper.m_axi      Write burst awid: 0x0 awaddr: 0x00009008 awlen: 0 awsize: 2 awprot: AxiProt.NONSECURE
  6340.00ns INFO     cocotb.axi_cdma_wrapper.m_axi      Read burst arid: 0x0 araddr: 0x0000100c arlen: 0 arsize: 2 arprot: AxiProt.NONSECURE
  6410.00ns INFO     cocotb.tb                          status: DescStatusTransaction(tag=53, error=0)
  6410.00ns DEBUG    cocotb.tb                          00008ff0: 00 00 00 00 00 00 00 00 00 00 00 00 00 00 00 00  ................
                                                        00009000: aa aa aa aa aa aa aa aa 00 01 02 03 aa aa aa aa  ................
                                                        00009010: aa aa aa aa aa aa aa aa aa aa aa aa aa aa aa aa  ................
  6410.00ns INFO     cocotb.tb                          length 4, read_offset 12, write_offset 12
  6460.00ns INFO     cocotb.axi_cdma_wrapper.m_axi      Write burst awid: 0x0 awaddr: 0x0000900c awlen: 0 awsize: 2 awprot: AxiProt.NONSECURE
  6460.00ns INFO     cocotb.axi_cdma_wrapper.m_axi      Read burst arid: 0x0 araddr: 0x0000100c arlen: 0 arsize: 2 arprot: AxiProt.NONSECURE
  6530.00ns INFO     cocotb.tb                          status: DescStatusTransaction(tag=54, error=0)
  6530.00ns DEBUG    cocotb.tb                          00008ff0: 00 00 00 00 00 00 00 00 00 00 00 00 00 00 00 00  ................
                                                        00009000: aa aa aa aa aa aa aa aa aa aa aa aa 00 01 02 03  ................
                                                        00009010: aa aa aa aa aa aa aa aa aa aa aa aa aa aa aa aa  ................
  6530.00ns INFO     cocotb.tb                          length 4, read_offset 12, write_offset 4088
  6580.00ns INFO     cocotb.axi_cdma_wrapper.m_axi      Write burst awid: 0x0 awaddr: 0x00009ff8 awlen: 0 awsize: 2 awprot: AxiProt.NONSECURE
  6580.00ns INFO     cocotb.axi_cdma_wrapper.m_axi      Read burst arid: 0x0 araddr: 0x0000100c arlen: 0 arsize: 2 arprot: AxiProt.NONSECURE
  6650.00ns INFO     cocotb.tb                          status: DescStatusTransaction(tag=55, error=0)
  6650.00ns DEBUG    cocotb.tb                          00009fe0: aa aa aa aa aa aa aa aa aa aa aa aa aa aa aa aa  ................
                                                        00009ff0: aa aa aa aa aa aa aa aa 00 01 02 03 aa aa aa aa  ................
                                                        0000a000: aa aa aa aa aa aa aa aa aa aa aa aa aa aa aa aa  ................
  6650.00ns INFO     cocotb.tb                          length 4, read_offset 12, write_offset 4092
  6700.00ns INFO     cocotb.axi_cdma_wrapper.m_axi      Write burst awid: 0x0 awaddr: 0x00009ffc awlen: 0 awsize: 2 awprot: AxiProt.NONSECURE
  6700.00ns INFO     cocotb.axi_cdma_wrapper.m_axi      Read burst arid: 0x0 araddr: 0x0000100c arlen: 0 arsize: 2 arprot: AxiProt.NONSECURE
  6770.00ns INFO     cocotb.tb                          status: DescStatusTransaction(tag=56, error=0)
  6770.00ns DEBUG    cocotb.tb                          00009fe0: aa aa aa aa aa aa aa aa aa aa aa aa aa aa aa aa  ................
                                                        00009ff0: aa aa aa aa aa aa aa aa aa aa aa aa 00 01 02 03  ................
                                                        0000a000: aa aa aa aa aa aa aa aa aa aa aa aa aa aa aa aa  ................
  6770.00ns INFO     cocotb.tb                          length 4, read_offset 4088, write_offset 8
  6820.00ns INFO     cocotb.axi_cdma_wrapper.m_axi      Write burst awid: 0x0 awaddr: 0x00009008 awlen: 0 awsize: 2 awprot: AxiProt.NONSECURE
  6820.00ns INFO     cocotb.axi_cdma_wrapper.m_axi      Read burst arid: 0x0 araddr: 0x00001ff8 arlen: 0 arsize: 2 arprot: AxiProt.NONSECURE
  6890.00ns INFO     cocotb.tb                          status: DescStatusTransaction(tag=57, error=0)
  6890.00ns DEBUG    cocotb.tb                          00008ff0: 00 00 00 00 00 00 00 00 00 00 00 00 00 00 00 00  ................
                                                        00009000: aa aa aa aa aa aa aa aa 00 01 02 03 aa aa aa aa  ................
                                                        00009010: aa aa aa aa aa aa aa aa aa aa aa aa aa aa aa aa  ................
  6890.00ns INFO     cocotb.tb                          length 4, read_offset 4088, write_offset 12
  6940.00ns INFO     cocotb.axi_cdma_wrapper.m_axi      Write burst awid: 0x0 awaddr: 0x0000900c awlen: 0 awsize: 2 awprot: AxiProt.NONSECURE
  6940.00ns INFO     cocotb.axi_cdma_wrapper.m_axi      Read burst arid: 0x0 araddr: 0x00001ff8 arlen: 0 arsize: 2 arprot: AxiProt.NONSECURE
  7010.00ns INFO     cocotb.tb                          status: DescStatusTransaction(tag=58, error=0)
  7010.00ns DEBUG    cocotb.tb                          00008ff0: 00 00 00 00 00 00 00 00 00 00 00 00 00 00 00 00  ................
                                                        00009000: aa aa aa aa aa aa aa aa aa aa aa aa 00 01 02 03  ................
                                                        00009010: aa aa aa aa aa aa aa aa aa aa aa aa aa aa aa aa  ................
  7010.00ns INFO     cocotb.tb                          length 4, read_offset 4088, write_offset 4088
  7060.00ns INFO     cocotb.axi_cdma_wrapper.m_axi      Write burst awid: 0x0 awaddr: 0x00009ff8 awlen: 0 awsize: 2 awprot: AxiProt.NONSECURE
  7060.00ns INFO     cocotb.axi_cdma_wrapper.m_axi      Read burst arid: 0x0 araddr: 0x00001ff8 arlen: 0 arsize: 2 arprot: AxiProt.NONSECURE
  7130.00ns INFO     cocotb.tb                          status: DescStatusTransaction(tag=59, error=0)
  7130.00ns DEBUG    cocotb.tb                          00009fe0: aa aa aa aa aa aa aa aa aa aa aa aa aa aa aa aa  ................
                                                        00009ff0: aa aa aa aa aa aa aa aa 00 01 02 03 aa aa aa aa  ................
                                                        0000a000: aa aa aa aa aa aa aa aa aa aa aa aa aa aa aa aa  ................
  7130.00ns INFO     cocotb.tb                          length 4, read_offset 4088, write_offset 4092
  7180.00ns INFO     cocotb.axi_cdma_wrapper.m_axi      Write burst awid: 0x0 awaddr: 0x00009ffc awlen: 0 awsize: 2 awprot: AxiProt.NONSECURE
  7180.00ns INFO     cocotb.axi_cdma_wrapper.m_axi      Read burst arid: 0x0 araddr: 0x00001ff8 arlen: 0 arsize: 2 arprot: AxiProt.NONSECURE
  7250.00ns INFO     cocotb.tb                          status: DescStatusTransaction(tag=60, error=0)
  7250.00ns DEBUG    cocotb.tb                          00009fe0: aa aa aa aa aa aa aa aa aa aa aa aa aa aa aa aa  ................
                                                        00009ff0: aa aa aa aa aa aa aa aa aa aa aa aa 00 01 02 03  ................
                                                        0000a000: aa aa aa aa aa aa aa aa aa aa aa aa aa aa aa aa  ................
  7250.00ns INFO     cocotb.tb                          length 4, read_offset 4092, write_offset 8
  7300.00ns INFO     cocotb.axi_cdma_wrapper.m_axi      Write burst awid: 0x0 awaddr: 0x00009008 awlen: 0 awsize: 2 awprot: AxiProt.NONSECURE
  7300.00ns INFO     cocotb.axi_cdma_wrapper.m_axi      Read burst arid: 0x0 araddr: 0x00001ffc arlen: 0 arsize: 2 arprot: AxiProt.NONSECURE
  7370.00ns INFO     cocotb.tb                          status: DescStatusTransaction(tag=61, error=0)
  7370.00ns DEBUG    cocotb.tb                          00008ff0: 00 00 00 00 00 00 00 00 00 00 00 00 00 00 00 00  ................
                                                        00009000: aa aa aa aa aa aa aa aa 00 01 02 03 aa aa aa aa  ................
                                                        00009010: aa aa aa aa aa aa aa aa aa aa aa aa aa aa aa aa  ................
  7370.00ns INFO     cocotb.tb                          length 4, read_offset 4092, write_offset 12
  7420.00ns INFO     cocotb.axi_cdma_wrapper.m_axi      Write burst awid: 0x0 awaddr: 0x0000900c awlen: 0 awsize: 2 awprot: AxiProt.NONSECURE
  7420.00ns INFO     cocotb.axi_cdma_wrapper.m_axi      Read burst arid: 0x0 araddr: 0x00001ffc arlen: 0 arsize: 2 arprot: AxiProt.NONSECURE
  7490.00ns INFO     cocotb.tb                          status: DescStatusTransaction(tag=62, error=0)
  7490.00ns DEBUG    cocotb.tb                          00008ff0: 00 00 00 00 00 00 00 00 00 00 00 00 00 00 00 00  ................
                                                        00009000: aa aa aa aa aa aa aa aa aa aa aa aa 00 01 02 03  ................
                                                        00009010: aa aa aa aa aa aa aa aa aa aa aa aa aa aa aa aa  ................
  7490.00ns INFO     cocotb.tb                          length 4, read_offset 4092, write_offset 4088
  7540.00ns INFO     cocotb.axi_cdma_wrapper.m_axi      Write burst awid: 0x0 awaddr: 0x00009ff8 awlen: 0 awsize: 2 awprot: AxiProt.NONSECURE
  7540.00ns INFO     cocotb.axi_cdma_wrapper.m_axi      Read burst arid: 0x0 araddr: 0x00001ffc arlen: 0 arsize: 2 arprot: AxiProt.NONSECURE
  7610.00ns INFO     cocotb.tb                          status: DescStatusTransaction(tag=63, error=0)
  7610.00ns DEBUG    cocotb.tb                          00009fe0: aa aa aa aa aa aa aa aa aa aa aa aa aa aa aa aa  ................
                                                        00009ff0: aa aa aa aa aa aa aa aa 00 01 02 03 aa aa aa aa  ................
                                                        0000a000: aa aa aa aa aa aa aa aa aa aa aa aa aa aa aa aa  ................
  7610.00ns INFO     cocotb.tb                          length 4, read_offset 4092, write_offset 4092
  7660.00ns INFO     cocotb.axi_cdma_wrapper.m_axi      Write burst awid: 0x0 awaddr: 0x00009ffc awlen: 0 awsize: 2 awprot: AxiProt.NONSECURE
  7660.00ns INFO     cocotb.axi_cdma_wrapper.m_axi      Read burst arid: 0x0 araddr: 0x00001ffc arlen: 0 arsize: 2 arprot: AxiProt.NONSECURE
  7730.00ns INFO     cocotb.tb                          status: DescStatusTransaction(tag=64, error=0)
  7730.00ns DEBUG    cocotb.tb                          00009fe0: aa aa aa aa aa aa aa aa aa aa aa aa aa aa aa aa  ................
                                                        00009ff0: aa aa aa aa aa aa aa aa aa aa aa aa 00 01 02 03  ................
                                                        0000a000: aa aa aa aa aa aa aa aa aa aa aa aa aa aa aa aa  ................
  7730.00ns INFO     cocotb.tb                          length 5, read_offset 8, write_offset 8
  7780.00ns INFO     cocotb.axi_cdma_wrapper.m_axi      Write burst awid: 0x0 awaddr: 0x00009008 awlen: 1 awsize: 2 awprot: AxiProt.NONSECURE
  7780.00ns INFO     cocotb.axi_cdma_wrapper.m_axi      Read burst arid: 0x0 araddr: 0x00001008 arlen: 1 arsize: 2 arprot: AxiProt.NONSECURE
  7860.00ns INFO     cocotb.tb                          status: DescStatusTransaction(tag=65, error=0)
  7860.00ns DEBUG    cocotb.tb                          00008ff0: 00 00 00 00 00 00 00 00 00 00 00 00 00 00 00 00  ................
                                                        00009000: aa aa aa aa aa aa aa aa 00 01 02 03 04 aa aa aa  ................
                                                        00009010: aa aa aa aa aa aa aa aa aa aa aa aa aa aa aa aa  ................
  7860.00ns INFO     cocotb.tb                          length 5, read_offset 8, write_offset 12
  7910.00ns INFO     cocotb.axi_cdma_wrapper.m_axi      Write burst awid: 0x0 awaddr: 0x0000900c awlen: 1 awsize: 2 awprot: AxiProt.NONSECURE
  7910.00ns INFO     cocotb.axi_cdma_wrapper.m_axi      Read burst arid: 0x0 araddr: 0x00001008 arlen: 1 arsize: 2 arprot: AxiProt.NONSECURE
  7990.00ns INFO     cocotb.tb                          status: DescStatusTransaction(tag=66, error=0)
  7990.00ns DEBUG    cocotb.tb                          00008ff0: 00 00 00 00 00 00 00 00 00 00 00 00 00 00 00 00  ................
                                                        00009000: aa aa aa aa aa aa aa aa aa aa aa aa 00 01 02 03  ................
                                                        00009010: 04 aa aa aa aa aa aa aa aa aa aa aa aa aa aa aa  ................
                                                        00009020: aa aa aa aa aa aa aa aa aa aa aa aa aa aa aa aa  ................
  7990.00ns INFO     cocotb.tb                          length 5, read_offset 8, write_offset 4088
  8040.00ns INFO     cocotb.axi_cdma_wrapper.m_axi      Write burst awid: 0x0 awaddr: 0x00009ff8 awlen: 1 awsize: 2 awprot: AxiProt.NONSECURE
  8040.00ns INFO     cocotb.axi_cdma_wrapper.m_axi      Read burst arid: 0x0 araddr: 0x00001008 arlen: 1 arsize: 2 arprot: AxiProt.NONSECURE
  8120.00ns INFO     cocotb.tb                          status: DescStatusTransaction(tag=67, error=0)
  8120.00ns DEBUG    cocotb.tb                          00009fe0: aa aa aa aa aa aa aa aa aa aa aa aa aa aa aa aa  ................
                                                        00009ff0: aa aa aa aa aa aa aa aa 00 01 02 03 04 aa aa aa  ................
                                                        0000a000: aa aa aa aa aa aa aa aa aa aa aa aa aa aa aa aa  ................
  8120.00ns INFO     cocotb.tb                          length 5, read_offset 8, write_offset 4092
  8170.00ns INFO     cocotb.axi_cdma_wrapper.m_axi      Write burst awid: 0x0 awaddr: 0x00009ffc awlen: 0 awsize: 2 awprot: AxiProt.NONSECURE
  8170.00ns INFO     cocotb.axi_cdma_wrapper.m_axi      Read burst arid: 0x0 araddr: 0x00001008 arlen: 0 arsize: 2 arprot: AxiProt.NONSECURE
  8190.00ns INFO     cocotb.axi_cdma_wrapper.m_axi      Read burst arid: 0x0 araddr: 0x0000100c arlen: 0 arsize: 2 arprot: AxiProt.NONSECURE
  8210.00ns INFO     cocotb.axi_cdma_wrapper.m_axi      Write burst awid: 0x0 awaddr: 0x0000a000 awlen: 0 awsize: 2 awprot: AxiProt.NONSECURE
  8260.00ns INFO     cocotb.tb                          status: DescStatusTransaction(tag=68, error=0)
  8260.00ns DEBUG    cocotb.tb                          00009fe0: aa aa aa aa aa aa aa aa aa aa aa aa aa aa aa aa  ................
                                                        00009ff0: aa aa aa aa aa aa aa aa aa aa aa aa 00 01 02 03  ................
                                                        0000a000: 04 aa aa aa aa aa aa aa aa aa aa aa aa aa aa aa  ................
                                                        0000a010: aa aa aa aa aa aa aa aa aa aa aa aa aa aa aa aa  ................
  8260.00ns INFO     cocotb.tb                          length 5, read_offset 12, write_offset 8
  8310.00ns INFO     cocotb.axi_cdma_wrapper.m_axi      Write burst awid: 0x0 awaddr: 0x00009008 awlen: 1 awsize: 2 awprot: AxiProt.NONSECURE
  8310.00ns INFO     cocotb.axi_cdma_wrapper.m_axi      Read burst arid: 0x0 araddr: 0x0000100c arlen: 1 arsize: 2 arprot: AxiProt.NONSECURE
  8390.00ns INFO     cocotb.tb                          status: DescStatusTransaction(tag=69, error=0)
  8390.00ns DEBUG    cocotb.tb                          00008ff0: 00 00 00 00 00 00 00 00 00 00 00 00 00 00 00 00  ................
                                                        00009000: aa aa aa aa aa aa aa aa 00 01 02 03 04 aa aa aa  ................
                                                        00009010: aa aa aa aa aa aa aa aa aa aa aa aa aa aa aa aa  ................
  8390.00ns INFO     cocotb.tb                          length 5, read_offset 12, write_offset 12
  8440.00ns INFO     cocotb.axi_cdma_wrapper.m_axi      Write burst awid: 0x0 awaddr: 0x0000900c awlen: 1 awsize: 2 awprot: AxiProt.NONSECURE
  8440.00ns INFO     cocotb.axi_cdma_wrapper.m_axi      Read burst arid: 0x0 araddr: 0x0000100c arlen: 1 arsize: 2 arprot: AxiProt.NONSECURE
  8520.00ns INFO     cocotb.tb                          status: DescStatusTransaction(tag=70, error=0)
  8520.00ns DEBUG    cocotb.tb                          00008ff0: 00 00 00 00 00 00 00 00 00 00 00 00 00 00 00 00  ................
                                                        00009000: aa aa aa aa aa aa aa aa aa aa aa aa 00 01 02 03  ................
                                                        00009010: 04 aa aa aa aa aa aa aa aa aa aa aa aa aa aa aa  ................
                                                        00009020: aa aa aa aa aa aa aa aa aa aa aa aa aa aa aa aa  ................
  8520.00ns INFO     cocotb.tb                          length 5, read_offset 12, write_offset 4088
  8570.00ns INFO     cocotb.axi_cdma_wrapper.m_axi      Write burst awid: 0x0 awaddr: 0x00009ff8 awlen: 1 awsize: 2 awprot: AxiProt.NONSECURE
  8570.00ns INFO     cocotb.axi_cdma_wrapper.m_axi      Read burst arid: 0x0 araddr: 0x0000100c arlen: 1 arsize: 2 arprot: AxiProt.NONSECURE
  8650.00ns INFO     cocotb.tb                          status: DescStatusTransaction(tag=71, error=0)
  8650.00ns DEBUG    cocotb.tb                          00009fe0: aa aa aa aa aa aa aa aa aa aa aa aa aa aa aa aa  ................
                                                        00009ff0: aa aa aa aa aa aa aa aa 00 01 02 03 04 aa aa aa  ................
                                                        0000a000: aa aa aa aa aa aa aa aa aa aa aa aa aa aa aa aa  ................
  8650.00ns INFO     cocotb.tb                          length 5, read_offset 12, write_offset 4092
  8700.00ns INFO     cocotb.axi_cdma_wrapper.m_axi      Write burst awid: 0x0 awaddr: 0x00009ffc awlen: 0 awsize: 2 awprot: AxiProt.NONSECURE
  8700.00ns INFO     cocotb.axi_cdma_wrapper.m_axi      Read burst arid: 0x0 araddr: 0x0000100c arlen: 0 arsize: 2 arprot: AxiProt.NONSECURE
  8720.00ns INFO     cocotb.axi_cdma_wrapper.m_axi      Read burst arid: 0x0 araddr: 0x00001010 arlen: 0 arsize: 2 arprot: AxiProt.NONSECURE
  8740.00ns INFO     cocotb.axi_cdma_wrapper.m_axi      Write burst awid: 0x0 awaddr: 0x0000a000 awlen: 0 awsize: 2 awprot: AxiProt.NONSECURE
  8790.00ns INFO     cocotb.tb                          status: DescStatusTransaction(tag=72, error=0)
  8790.00ns DEBUG    cocotb.tb                          00009fe0: aa aa aa aa aa aa aa aa aa aa aa aa aa aa aa aa  ................
                                                        00009ff0: aa aa aa aa aa aa aa aa aa aa aa aa 00 01 02 03  ................
                                                        0000a000: 04 aa aa aa aa aa aa aa aa aa aa aa aa aa aa aa  ................
                                                        0000a010: aa aa aa aa aa aa aa aa aa aa aa aa aa aa aa aa  ................
  8790.00ns INFO     cocotb.tb                          length 5, read_offset 4088, write_offset 8
  8840.00ns INFO     cocotb.axi_cdma_wrapper.m_axi      Write burst awid: 0x0 awaddr: 0x00009008 awlen: 1 awsize: 2 awprot: AxiProt.NONSECURE
  8840.00ns INFO     cocotb.axi_cdma_wrapper.m_axi      Read burst arid: 0x0 araddr: 0x00001ff8 arlen: 1 arsize: 2 arprot: AxiProt.NONSECURE
  8920.00ns INFO     cocotb.tb                          status: DescStatusTransaction(tag=73, error=0)
  8920.00ns DEBUG    cocotb.tb                          00008ff0: 00 00 00 00 00 00 00 00 00 00 00 00 00 00 00 00  ................
                                                        00009000: aa aa aa aa aa aa aa aa 00 01 02 03 04 aa aa aa  ................
                                                        00009010: aa aa aa aa aa aa aa aa aa aa aa aa aa aa aa aa  ................
  8920.00ns INFO     cocotb.tb                          length 5, read_offset 4088, write_offset 12
  8970.00ns INFO     cocotb.axi_cdma_wrapper.m_axi      Write burst awid: 0x0 awaddr: 0x0000900c awlen: 1 awsize: 2 awprot: AxiProt.NONSECURE
  8970.00ns INFO     cocotb.axi_cdma_wrapper.m_axi      Read burst arid: 0x0 araddr: 0x00001ff8 arlen: 1 arsize: 2 arprot: AxiProt.NONSECURE
  9050.00ns INFO     cocotb.tb                          status: DescStatusTransaction(tag=74, error=0)
  9050.00ns DEBUG    cocotb.tb                          00008ff0: 00 00 00 00 00 00 00 00 00 00 00 00 00 00 00 00  ................
                                                        00009000: aa aa aa aa aa aa aa aa aa aa aa aa 00 01 02 03  ................
                                                        00009010: 04 aa aa aa aa aa aa aa aa aa aa aa aa aa aa aa  ................
                                                        00009020: aa aa aa aa aa aa aa aa aa aa aa aa aa aa aa aa  ................
  9050.00ns INFO     cocotb.tb                          length 5, read_offset 4088, write_offset 4088
  9100.00ns INFO     cocotb.axi_cdma_wrapper.m_axi      Write burst awid: 0x0 awaddr: 0x00009ff8 awlen: 1 awsize: 2 awprot: AxiProt.NONSECURE
  9100.00ns INFO     cocotb.axi_cdma_wrapper.m_axi      Read burst arid: 0x0 araddr: 0x00001ff8 arlen: 1 arsize: 2 arprot: AxiProt.NONSECURE
  9180.00ns INFO     cocotb.tb                          status: DescStatusTransaction(tag=75, error=0)
  9180.00ns DEBUG    cocotb.tb                          00009fe0: aa aa aa aa aa aa aa aa aa aa aa aa aa aa aa aa  ................
                                                        00009ff0: aa aa aa aa aa aa aa aa 00 01 02 03 04 aa aa aa  ................
                                                        0000a000: aa aa aa aa aa aa aa aa aa aa aa aa aa aa aa aa  ................
  9180.00ns INFO     cocotb.tb                          length 5, read_offset 4088, write_offset 4092
  9230.00ns INFO     cocotb.axi_cdma_wrapper.m_axi      Write burst awid: 0x0 awaddr: 0x00009ffc awlen: 0 awsize: 2 awprot: AxiProt.NONSECURE
  9230.00ns INFO     cocotb.axi_cdma_wrapper.m_axi      Read burst arid: 0x0 araddr: 0x00001ff8 arlen: 0 arsize: 2 arprot: AxiProt.NONSECURE
  9250.00ns INFO     cocotb.axi_cdma_wrapper.m_axi      Read burst arid: 0x0 araddr: 0x00001ffc arlen: 0 arsize: 2 arprot: AxiProt.NONSECURE
  9270.00ns INFO     cocotb.axi_cdma_wrapper.m_axi      Write burst awid: 0x0 awaddr: 0x0000a000 awlen: 0 awsize: 2 awprot: AxiProt.NONSECURE
  9320.00ns INFO     cocotb.tb                          status: DescStatusTransaction(tag=76, error=0)
  9320.00ns DEBUG    cocotb.tb                          00009fe0: aa aa aa aa aa aa aa aa aa aa aa aa aa aa aa aa  ................
                                                        00009ff0: aa aa aa aa aa aa aa aa aa aa aa aa 00 01 02 03  ................
                                                        0000a000: 04 aa aa aa aa aa aa aa aa aa aa aa aa aa aa aa  ................
                                                        0000a010: aa aa aa aa aa aa aa aa aa aa aa aa aa aa aa aa  ................
  9320.00ns INFO     cocotb.tb                          length 5, read_offset 4092, write_offset 8
  9370.00ns INFO     cocotb.axi_cdma_wrapper.m_axi      Write burst awid: 0x0 awaddr: 0x00009008 awlen: 1 awsize: 2 awprot: AxiProt.NONSECURE
  9370.00ns INFO     cocotb.axi_cdma_wrapper.m_axi      Read burst arid: 0x0 araddr: 0x00001ffc arlen: 0 arsize: 2 arprot: AxiProt.NONSECURE
  9390.00ns INFO     cocotb.axi_cdma_wrapper.m_axi      Read burst arid: 0x0 araddr: 0x00002000 arlen: 0 arsize: 2 arprot: AxiProt.NONSECURE
  9460.00ns INFO     cocotb.tb                          status: DescStatusTransaction(tag=77, error=0)
  9460.00ns DEBUG    cocotb.tb                          00008ff0: 00 00 00 00 00 00 00 00 00 00 00 00 00 00 00 00  ................
                                                        00009000: aa aa aa aa aa aa aa aa 00 01 02 03 04 aa aa aa  ................
                                                        00009010: aa aa aa aa aa aa aa aa aa aa aa aa aa aa aa aa  ................
  9460.00ns INFO     cocotb.tb                          length 5, read_offset 4092, write_offset 12
  9510.00ns INFO     cocotb.axi_cdma_wrapper.m_axi      Write burst awid: 0x0 awaddr: 0x0000900c awlen: 1 awsize: 2 awprot: AxiProt.NONSECURE
  9510.00ns INFO     cocotb.axi_cdma_wrapper.m_axi      Read burst arid: 0x0 araddr: 0x00001ffc arlen: 0 arsize: 2 arprot: AxiProt.NONSECURE
  9530.00ns INFO     cocotb.axi_cdma_wrapper.m_axi      Read burst arid: 0x0 araddr: 0x00002000 arlen: 0 arsize: 2 arprot: AxiProt.NONSECURE
  9600.00ns INFO     cocotb.tb                          status: DescStatusTransaction(tag=78, error=0)
  9600.00ns DEBUG    cocotb.tb                          00008ff0: 00 00 00 00 00 00 00 00 00 00 00 00 00 00 00 00  ................
                                                        00009000: aa aa aa aa aa aa aa aa aa aa aa aa 00 01 02 03  ................
                                                        00009010: 04 aa aa aa aa aa aa aa aa aa aa aa aa aa aa aa  ................
                                                        00009020: aa aa aa aa aa aa aa aa aa aa aa aa aa aa aa aa  ................
  9600.00ns INFO     cocotb.tb                          length 5, read_offset 4092, write_offset 4088
  9650.00ns INFO     cocotb.axi_cdma_wrapper.m_axi      Write burst awid: 0x0 awaddr: 0x00009ff8 awlen: 1 awsize: 2 awprot: AxiProt.NONSECURE
  9650.00ns INFO     cocotb.axi_cdma_wrapper.m_axi      Read burst arid: 0x0 araddr: 0x00001ffc arlen: 0 arsize: 2 arprot: AxiProt.NONSECURE
  9670.00ns INFO     cocotb.axi_cdma_wrapper.m_axi      Read burst arid: 0x0 araddr: 0x00002000 arlen: 0 arsize: 2 arprot: AxiProt.NONSECURE
  9740.00ns INFO     cocotb.tb                          status: DescStatusTransaction(tag=79, error=0)
  9740.00ns DEBUG    cocotb.tb                          00009fe0: aa aa aa aa aa aa aa aa aa aa aa aa aa aa aa aa  ................
                                                        00009ff0: aa aa aa aa aa aa aa aa 00 01 02 03 04 aa aa aa  ................
                                                        0000a000: aa aa aa aa aa aa aa aa aa aa aa aa aa aa aa aa  ................
  9740.00ns INFO     cocotb.tb                          length 5, read_offset 4092, write_offset 4092
  9790.00ns INFO     cocotb.axi_cdma_wrapper.m_axi      Write burst awid: 0x0 awaddr: 0x00009ffc awlen: 0 awsize: 2 awprot: AxiProt.NONSECURE
  9790.00ns INFO     cocotb.axi_cdma_wrapper.m_axi      Read burst arid: 0x0 araddr: 0x00001ffc arlen: 0 arsize: 2 arprot: AxiProt.NONSECURE
  9810.00ns INFO     cocotb.axi_cdma_wrapper.m_axi      Read burst arid: 0x0 araddr: 0x00002000 arlen: 0 arsize: 2 arprot: AxiProt.NONSECURE
  9830.00ns INFO     cocotb.axi_cdma_wrapper.m_axi      Write burst awid: 0x0 awaddr: 0x0000a000 awlen: 0 awsize: 2 awprot: AxiProt.NONSECURE
  9880.00ns INFO     cocotb.tb                          status: DescStatusTransaction(tag=80, error=0)
  9880.00ns DEBUG    cocotb.tb                          00009fe0: aa aa aa aa aa aa aa aa aa aa aa aa aa aa aa aa  ................
                                                        00009ff0: aa aa aa aa aa aa aa aa aa aa aa aa 00 01 02 03  ................
                                                        0000a000: 04 aa aa aa aa aa aa aa aa aa aa aa aa aa aa aa  ................
                                                        0000a010: aa aa aa aa aa aa aa aa aa aa aa aa aa aa aa aa  ................
  9880.00ns INFO     cocotb.tb                          length 6, read_offset 8, write_offset 8
  9930.00ns INFO     cocotb.axi_cdma_wrapper.m_axi      Write burst awid: 0x0 awaddr: 0x00009008 awlen: 1 awsize: 2 awprot: AxiProt.NONSECURE
  9930.00ns INFO     cocotb.axi_cdma_wrapper.m_axi      Read burst arid: 0x0 araddr: 0x00001008 arlen: 1 arsize: 2 arprot: AxiProt.NONSECURE
 10010.00ns INFO     cocotb.tb                          status: DescStatusTransaction(tag=81, error=0)
 10010.00ns DEBUG    cocotb.tb                          00008ff0: 00 00 00 00 00 00 00 00 00 00 00 00 00 00 00 00  ................
                                                        00009000: aa aa aa aa aa aa aa aa 00 01 02 03 04 05 aa aa  ................
                                                        00009010: aa aa aa aa aa aa aa aa aa aa aa aa aa aa aa aa  ................
 10010.00ns INFO     cocotb.tb                          length 6, read_offset 8, write_offset 12
 10060.00ns INFO     cocotb.axi_cdma_wrapper.m_axi      Write burst awid: 0x0 awaddr: 0x0000900c awlen: 1 awsize: 2 awprot: AxiProt.NONSECURE
 10060.00ns INFO     cocotb.axi_cdma_wrapper.m_axi      Read burst arid: 0x0 araddr: 0x00001008 arlen: 1 arsize: 2 arprot: AxiProt.NONSECURE
 10140.00ns INFO     cocotb.tb                          status: DescStatusTransaction(tag=82, error=0)
 10140.00ns DEBUG    cocotb.tb                          00008ff0: 00 00 00 00 00 00 00 00 00 00 00 00 00 00 00 00  ................
                                                        00009000: aa aa aa aa aa aa aa aa aa aa aa aa 00 01 02 03  ................
                                                        00009010: 04 05 aa aa aa aa aa aa aa aa aa aa aa aa aa aa  ................
                                                        00009020: aa aa aa aa aa aa aa aa aa aa aa aa aa aa aa aa  ................
 10140.00ns INFO     cocotb.tb                          length 6, read_offset 8, write_offset 4088
 10190.00ns INFO     cocotb.axi_cdma_wrapper.m_axi      Write burst awid: 0x0 awaddr: 0x00009ff8 awlen: 1 awsize: 2 awprot: AxiProt.NONSECURE
 10190.00ns INFO     cocotb.axi_cdma_wrapper.m_axi      Read burst arid: 0x0 araddr: 0x00001008 arlen: 1 arsize: 2 arprot: AxiProt.NONSECURE
 10270.00ns INFO     cocotb.tb                          status: DescStatusTransaction(tag=83, error=0)
 10270.00ns DEBUG    cocotb.tb                          00009fe0: aa aa aa aa aa aa aa aa aa aa aa aa aa aa aa aa  ................
                                                        00009ff0: aa aa aa aa aa aa aa aa 00 01 02 03 04 05 aa aa  ................
                                                        0000a000: aa aa aa aa aa aa aa aa aa aa aa aa aa aa aa aa  ................
 10270.00ns INFO     cocotb.tb                          length 6, read_offset 8, write_offset 4092
 10320.00ns INFO     cocotb.axi_cdma_wrapper.m_axi      Write burst awid: 0x0 awaddr: 0x00009ffc awlen: 0 awsize: 2 awprot: AxiProt.NONSECURE
 10320.00ns INFO     cocotb.axi_cdma_wrapper.m_axi      Read burst arid: 0x0 araddr: 0x00001008 arlen: 0 arsize: 2 arprot: AxiProt.NONSECURE
 10340.00ns INFO     cocotb.axi_cdma_wrapper.m_axi      Read burst arid: 0x0 araddr: 0x0000100c arlen: 0 arsize: 2 arprot: AxiProt.NONSECURE
 10360.00ns INFO     cocotb.axi_cdma_wrapper.m_axi      Write burst awid: 0x0 awaddr: 0x0000a000 awlen: 0 awsize: 2 awprot: AxiProt.NONSECURE
 10410.00ns INFO     cocotb.tb                          status: DescStatusTransaction(tag=84, error=0)
 10410.00ns DEBUG    cocotb.tb                          00009fe0: aa aa aa aa aa aa aa aa aa aa aa aa aa aa aa aa  ................
                                                        00009ff0: aa aa aa aa aa aa aa aa aa aa aa aa 00 01 02 03  ................
                                                        0000a000: 04 05 aa aa aa aa aa aa aa aa aa aa aa aa aa aa  ................
                                                        0000a010: aa aa aa aa aa aa aa aa aa aa aa aa aa aa aa aa  ................
 10410.00ns INFO     cocotb.tb                          length 6, read_offset 12, write_offset 8
 10460.00ns INFO     cocotb.axi_cdma_wrapper.m_axi      Write burst awid: 0x0 awaddr: 0x00009008 awlen: 1 awsize: 2 awprot: AxiProt.NONSECURE
 10460.00ns INFO     cocotb.axi_cdma_wrapper.m_axi      Read burst arid: 0x0 araddr: 0x0000100c arlen: 1 arsize: 2 arprot: AxiProt.NONSECURE
